# tracer: nop
#
# entries-in-buffer/entries-written: 14477/14477   #P:16
#
#                                _-----=> irqs-off/BH-disabled
#                               / _----=> need-resched
#                              | / _---=> hardirq/softirq
#                              || / _--=> preempt-depth
#                              ||| / _-=> migrate-disable
#                              |||| /     delay
#           TASK-PID     CPU#  |||||  TIMESTAMP  FUNCTION
#              | |         |   |||||     |         |
   systemd-sleep-476241  [014] ..... 24996.959771: suspend_resume: suspend_enter[3] begin
   systemd-sleep-476241  [014] ..... 24996.959774: suspend_resume: sync_filesystems[0] begin
   systemd-sleep-476241  [002] ..... 24997.039712: suspend_resume: sync_filesystems[0] end
   systemd-sleep-476241  [002] ..... 24997.138369: suspend_resume: freeze_processes[0] begin
   systemd-sleep-476241  [002] ..... 24997.142758: suspend_resume: freeze_processes[0] end
   systemd-sleep-476241  [002] ..... 24997.142759: suspend_resume: suspend_enter[3] end
   systemd-sleep-476241  [012] ..... 24997.142842: suspend_resume: dpm_prepare[2] begin
   systemd-sleep-476241  [012] ..... 24997.143336: suspend_resume: dpm_prepare[2] end
   systemd-sleep-476241  [012] ..... 24997.143337: suspend_resume: dpm_suspend[2] begin
   systemd-sleep-476241  [012] ..... 24997.144013: smbus_write: i2c-11 a=02c f=0040 c=4 BLOCK_DATA l=2 [01-f5]
   systemd-sleep-476241  [012] ..... 24997.144760: smbus_result: i2c-11 a=02c f=0000 c=4 BLOCK_DATA wr res=0
 irq/95-rmi4_smb-439863  [009] ..... 24997.152138: smbus_read: i2c-11 a=02c f=0040 c=0 BLOCK_DATA
 irq/95-rmi4_smb-439863  [009] ..... 24997.153197: smbus_reply: i2c-11 a=02c f=0000 c=0 BLOCK_DATA l=3 [02-80-00]
 irq/95-rmi4_smb-439863  [009] ..... 24997.153199: smbus_result: i2c-11 a=02c f=0000 c=0 BLOCK_DATA rd res=0
 irq/95-rmi4_smb-439863  [009] ..... 24997.153203: smbus_read: i2c-11 a=02c f=0040 c=5 BLOCK_DATA
 irq/95-rmi4_smb-439863  [009] ..... 24997.155577: smbus_reply: i2c-11 a=02c f=0000 c=5 BLOCK_DATA l=15 [0e-01-fa-00-00-00-00-00-00-00-00-00-00-00-00]
 irq/95-rmi4_smb-439863  [009] ..... 24997.155578: smbus_result: i2c-11 a=02c f=0000 c=5 BLOCK_DATA rd res=0
   systemd-sleep-476241  [012] ..... 24997.155623: smbus_write: i2c-11 a=02c f=0040 c=4 BLOCK_DATA l=2 [01-f6]
   systemd-sleep-476241  [012] ..... 24997.156685: smbus_result: i2c-11 a=02c f=0000 c=4 BLOCK_DATA wr res=0
 irq/95-rmi4_smb-439863  [009] ..... 24997.164436: smbus_read: i2c-11 a=02c f=0040 c=0 BLOCK_DATA
 irq/95-rmi4_smb-439863  [009] ..... 24997.165725: smbus_reply: i2c-11 a=02c f=0000 c=0 BLOCK_DATA l=3 [02-80-00]
 irq/95-rmi4_smb-439863  [009] ..... 24997.165727: smbus_result: i2c-11 a=02c f=0000 c=0 BLOCK_DATA rd res=0
 irq/95-rmi4_smb-439863  [009] ..... 24997.165731: smbus_read: i2c-11 a=02c f=0040 c=5 BLOCK_DATA
 irq/95-rmi4_smb-439863  [009] ..... 24997.168102: smbus_reply: i2c-11 a=02c f=0000 c=5 BLOCK_DATA l=15 [0e-01-fa-00-00-00-00-00-00-00-00-00-00-00-00]
 irq/95-rmi4_smb-439863  [009] ..... 24997.168103: smbus_result: i2c-11 a=02c f=0000 c=5 BLOCK_DATA rd res=0
   systemd-sleep-476241  [012] ..... 24997.168141: smbus_write: i2c-11 a=02c f=0040 c=4 BLOCK_DATA l=2 [01-f4]
   systemd-sleep-476241  [012] ..... 24997.168870: smbus_result: i2c-11 a=02c f=0000 c=4 BLOCK_DATA wr res=0
 irq/95-rmi4_smb-439863  [009] ..... 24997.176840: smbus_read: i2c-11 a=02c f=0040 c=0 BLOCK_DATA
 irq/95-rmi4_smb-439863  [009] ..... 24997.178142: smbus_reply: i2c-11 a=02c f=0000 c=0 BLOCK_DATA l=3 [02-80-00]
 irq/95-rmi4_smb-439863  [009] ..... 24997.178143: smbus_result: i2c-11 a=02c f=0000 c=0 BLOCK_DATA rd res=0
 irq/95-rmi4_smb-439863  [009] ..... 24997.178147: smbus_read: i2c-11 a=02c f=0040 c=5 BLOCK_DATA
 irq/95-rmi4_smb-439863  [009] ..... 24997.180577: smbus_reply: i2c-11 a=02c f=0000 c=5 BLOCK_DATA l=15 [0e-01-fa-00-00-00-00-00-00-00-00-00-00-00-00]
 irq/95-rmi4_smb-439863  [009] ..... 24997.180578: smbus_result: i2c-11 a=02c f=0000 c=5 BLOCK_DATA rd res=0
  kworker/u64:37-447016  [003] ..... 24997.180928: smbus_write: i2c-11 a=02c f=0040 c=86 BLOCK_DATA l=5 [04-14-00-01-01]
  kworker/u64:37-447016  [003] ..... 24997.182877: smbus_result: i2c-11 a=02c f=0000 c=86 BLOCK_DATA wr res=0
  kworker/u64:37-447016  [003] ..... 24997.182879: smbus_write: i2c-11 a=02c f=0040 c=6 BLOCK_DATA l=2 [01-81]
  kworker/u64:37-447016  [006] ..... 24997.184672: smbus_result: i2c-11 a=02c f=0000 c=6 BLOCK_DATA wr res=0
   systemd-sleep-476241  [014] ..... 24997.526249: suspend_resume: dpm_suspend[2] end
   systemd-sleep-476241  [014] ..... 24997.526251: suspend_resume: dpm_suspend_late[2] begin
   systemd-sleep-476241  [014] ..... 24997.527836: suspend_resume: dpm_suspend_late[2] end
   systemd-sleep-476241  [014] ..... 24997.528008: suspend_resume: dpm_suspend_noirq[2] begin
   systemd-sleep-476241  [002] ..... 24997.590271: suspend_resume: dpm_suspend_noirq[2] end
   systemd-sleep-476241  [002] ..... 24997.595159: suspend_resume: CPU_OFF[15] begin
   systemd-sleep-476241  [002] ..... 24997.601119: suspend_resume: CPU_OFF[15] end
   systemd-sleep-476241  [002] ..... 24997.601120: suspend_resume: CPU_OFF[14] begin
   systemd-sleep-476241  [002] ..... 24997.606134: suspend_resume: CPU_OFF[14] end
   systemd-sleep-476241  [002] ..... 24997.606136: suspend_resume: CPU_OFF[13] begin
   systemd-sleep-476241  [002] ..... 24997.611573: suspend_resume: CPU_OFF[13] end
   systemd-sleep-476241  [002] ..... 24997.611574: suspend_resume: CPU_OFF[12] begin
   systemd-sleep-476241  [002] ..... 24997.616603: suspend_resume: CPU_OFF[12] end
   systemd-sleep-476241  [002] ..... 24997.616604: suspend_resume: CPU_OFF[11] begin
   systemd-sleep-476241  [002] ..... 24997.621916: suspend_resume: CPU_OFF[11] end
   systemd-sleep-476241  [002] ..... 24997.621917: suspend_resume: CPU_OFF[10] begin
   systemd-sleep-476241  [002] ..... 24997.627492: suspend_resume: CPU_OFF[10] end
   systemd-sleep-476241  [002] ..... 24997.627493: suspend_resume: CPU_OFF[9] begin
   systemd-sleep-476241  [002] ..... 24997.632628: suspend_resume: CPU_OFF[9] end
   systemd-sleep-476241  [002] ..... 24997.632629: suspend_resume: CPU_OFF[8] begin
   systemd-sleep-476241  [002] ..... 24997.637882: suspend_resume: CPU_OFF[8] end
   systemd-sleep-476241  [002] ..... 24997.637883: suspend_resume: CPU_OFF[7] begin
   systemd-sleep-476241  [003] ..... 24997.643113: suspend_resume: CPU_OFF[7] end
   systemd-sleep-476241  [003] ..... 24997.643115: suspend_resume: CPU_OFF[6] begin
   systemd-sleep-476241  [003] ..... 24997.647611: suspend_resume: CPU_OFF[6] end
   systemd-sleep-476241  [003] ..... 24997.647612: suspend_resume: CPU_OFF[5] begin
   systemd-sleep-476241  [003] ..... 24997.651830: suspend_resume: CPU_OFF[5] end
   systemd-sleep-476241  [003] ..... 24997.651831: suspend_resume: CPU_OFF[4] begin
   systemd-sleep-476241  [003] ..... 24997.655297: suspend_resume: CPU_OFF[4] end
   systemd-sleep-476241  [003] ..... 24997.655298: suspend_resume: CPU_OFF[3] begin
   systemd-sleep-476241  [002] ..... 24997.659053: suspend_resume: CPU_OFF[3] end
   systemd-sleep-476241  [002] ..... 24997.659055: suspend_resume: CPU_OFF[2] begin
   systemd-sleep-476241  [001] ..... 24997.662711: suspend_resume: CPU_OFF[2] end
   systemd-sleep-476241  [001] ..... 24997.662712: suspend_resume: CPU_OFF[1] begin
   systemd-sleep-476241  [000] ..... 24997.666501: suspend_resume: CPU_OFF[1] end
   systemd-sleep-476241  [000] d.... 24997.666503: suspend_resume: syscore_suspend[0] begin
   systemd-sleep-476241  [000] d.... 24997.666861: suspend_resume: syscore_suspend[0] end
   systemd-sleep-476241  [000] d.... 24997.666863: suspend_resume: machine_suspend[3] begin
   systemd-sleep-476241  [000] d.... 24997.666864: suspend_resume: acpi_suspend[3] begin
   systemd-sleep-476241  [000] d.... 24997.666999: suspend_resume: acpi_suspend[3] end
   systemd-sleep-476241  [000] d.... 24997.667128: suspend_resume: machine_suspend[3] end
   systemd-sleep-476241  [000] d.... 24997.667128: suspend_resume: syscore_resume[0] begin
   systemd-sleep-476241  [000] dN... 24997.766073: suspend_resume: syscore_resume[0] end
   systemd-sleep-476241  [000] ..... 24997.766151: suspend_resume: CPU_ON[1] begin
   systemd-sleep-476241  [000] ..... 24997.769550: suspend_resume: CPU_ON[1] end
   systemd-sleep-476241  [000] ..... 24997.769553: suspend_resume: CPU_ON[2] begin
   systemd-sleep-476241  [000] ..... 24997.772676: suspend_resume: CPU_ON[2] end
   systemd-sleep-476241  [000] ..... 24997.772679: suspend_resume: CPU_ON[3] begin
   systemd-sleep-476241  [000] ..... 24997.775804: suspend_resume: CPU_ON[3] end
   systemd-sleep-476241  [000] ..... 24997.775806: suspend_resume: CPU_ON[4] begin
   systemd-sleep-476241  [001] ..... 24997.779508: suspend_resume: CPU_ON[4] end
   systemd-sleep-476241  [001] ..... 24997.779511: suspend_resume: CPU_ON[5] begin
   systemd-sleep-476241  [004] ..... 24997.782715: suspend_resume: CPU_ON[5] end
   systemd-sleep-476241  [004] ..... 24997.782719: suspend_resume: CPU_ON[6] begin
   systemd-sleep-476241  [004] ..... 24997.785907: suspend_resume: CPU_ON[6] end
   systemd-sleep-476241  [004] ..... 24997.785909: suspend_resume: CPU_ON[7] begin
   systemd-sleep-476241  [004] ..... 24997.789096: suspend_resume: CPU_ON[7] end
   systemd-sleep-476241  [004] ..... 24997.789098: suspend_resume: CPU_ON[8] begin
   systemd-sleep-476241  [004] ..... 24997.792316: suspend_resume: CPU_ON[8] end
   systemd-sleep-476241  [004] ..... 24997.792319: suspend_resume: CPU_ON[9] begin
   systemd-sleep-476241  [004] ..... 24997.795577: suspend_resume: CPU_ON[9] end
   systemd-sleep-476241  [004] ..... 24997.795579: suspend_resume: CPU_ON[10] begin
   systemd-sleep-476241  [004] ..... 24997.798836: suspend_resume: CPU_ON[10] end
   systemd-sleep-476241  [004] ..... 24997.798839: suspend_resume: CPU_ON[11] begin
   systemd-sleep-476241  [004] ..... 24997.802178: suspend_resume: CPU_ON[11] end
   systemd-sleep-476241  [004] ..... 24997.802180: suspend_resume: CPU_ON[12] begin
   systemd-sleep-476241  [004] ..... 24997.805566: suspend_resume: CPU_ON[12] end
   systemd-sleep-476241  [004] ..... 24997.805568: suspend_resume: CPU_ON[13] begin
   systemd-sleep-476241  [004] ..... 24997.809034: suspend_resume: CPU_ON[13] end
   systemd-sleep-476241  [004] ..... 24997.809036: suspend_resume: CPU_ON[14] begin
   systemd-sleep-476241  [004] ..... 24997.812476: suspend_resume: CPU_ON[14] end
   systemd-sleep-476241  [004] ..... 24997.812478: suspend_resume: CPU_ON[15] begin
   systemd-sleep-476241  [004] ..... 24997.815953: suspend_resume: CPU_ON[15] end
   systemd-sleep-476241  [002] ..... 24997.860063: suspend_resume: dpm_resume_noirq[16] begin
   systemd-sleep-476241  [015] ..... 24997.907415: suspend_resume: dpm_resume_noirq[16] end
   systemd-sleep-476241  [015] ..... 24997.907499: suspend_resume: dpm_resume_early[16] begin
   systemd-sleep-476241  [015] ..... 24997.907917: suspend_resume: dpm_resume_early[16] end
   systemd-sleep-476241  [015] ..... 24997.907919: suspend_resume: dpm_resume[16] begin
  kworker/u64:14-427867  [007] ..... 24997.952273: smbus_read: i2c-11 a=02c f=0040 c=fd BYTE_DATA
  kworker/u64:14-427867  [007] ..... 24997.953342: smbus_reply: i2c-11 a=02c f=0000 c=fd BYTE_DATA l=1 [02]
  kworker/u64:14-427867  [007] ..... 24997.953343: smbus_result: i2c-11 a=02c f=0000 c=fd BYTE_DATA rd res=0
  kworker/u64:14-427867  [007] ..... 24997.953345: smbus_write: i2c-11 a=02c f=0040 c=87 BLOCK_DATA l=5 [04-15-00-02-00]
  kworker/u64:14-427867  [007] ..... 24997.954342: smbus_result: i2c-11 a=02c f=0000 c=87 BLOCK_DATA wr res=0
  kworker/u64:14-427867  [007] ..... 24997.954343: smbus_read: i2c-11 a=02c f=0040 c=7 BLOCK_DATA
  kworker/u64:14-427867  [007] ..... 24997.955358: smbus_reply: i2c-11 a=02c f=0000 c=7 BLOCK_DATA l=3 [02-00-00]
  kworker/u64:14-427867  [007] ..... 24997.955359: smbus_result: i2c-11 a=02c f=0000 c=7 BLOCK_DATA rd res=0
  kworker/u64:14-427867  [007] ..... 24997.955363: smbus_write: i2c-11 a=02c f=0040 c=80 BLOCK_DATA l=5 [04-14-00-01-01]
  kworker/u64:14-427867  [007] ..... 24997.956338: smbus_result: i2c-11 a=02c f=0000 c=80 BLOCK_DATA wr res=0
  kworker/u64:14-427867  [007] ..... 24997.956339: smbus_write: i2c-11 a=02c f=0040 c=0 BLOCK_DATA l=2 [01-81]
  kworker/u64:14-427867  [007] ..... 24997.957336: smbus_result: i2c-11 a=02c f=0000 c=0 BLOCK_DATA wr res=0
  kworker/u64:14-427867  [007] ..... 24997.957337: smbus_write: i2c-11 a=02c f=0040 c=81 BLOCK_DATA l=5 [04-17-00-01-01]
  kworker/u64:14-427867  [007] ..... 24997.958337: smbus_result: i2c-11 a=02c f=0000 c=81 BLOCK_DATA wr res=0
  kworker/u64:14-427867  [007] ..... 24997.958338: smbus_write: i2c-11 a=02c f=0040 c=1 BLOCK_DATA l=2 [01-03]
  kworker/u64:14-427867  [007] ..... 24997.959337: smbus_result: i2c-11 a=02c f=0000 c=1 BLOCK_DATA wr res=0
  kworker/u64:14-427867  [007] ..... 24997.959338: smbus_write: i2c-11 a=02c f=0040 c=82 BLOCK_DATA l=5 [04-18-00-01-01]
  kworker/u64:14-427867  [007] ..... 24997.960336: smbus_result: i2c-11 a=02c f=0000 c=82 BLOCK_DATA wr res=0
  kworker/u64:14-427867  [007] ..... 24997.960337: smbus_write: i2c-11 a=02c f=0040 c=2 BLOCK_DATA l=2 [01-2d]
  kworker/u64:14-427867  [007] ..... 24997.961336: smbus_result: i2c-11 a=02c f=0000 c=2 BLOCK_DATA wr res=0
  kworker/u64:14-427867  [007] ..... 24997.961337: smbus_write: i2c-11 a=02c f=0040 c=83 BLOCK_DATA l=5 [04-19-00-01-01]
  kworker/u64:14-427867  [007] ..... 24997.962341: smbus_result: i2c-11 a=02c f=0000 c=83 BLOCK_DATA wr res=0
  kworker/u64:14-427867  [007] ..... 24997.962342: smbus_write: i2c-11 a=02c f=0040 c=3 BLOCK_DATA l=2 [01-00]
  kworker/u64:14-427867  [007] ..... 24997.963336: smbus_result: i2c-11 a=02c f=0000 c=3 BLOCK_DATA wr res=0
  kworker/u64:14-427867  [007] ..... 24997.963338: smbus_write: i2c-11 a=02c f=0040 c=84 BLOCK_DATA l=5 [04-15-00-02-01]
  kworker/u64:14-427867  [007] ..... 24997.964340: smbus_result: i2c-11 a=02c f=0000 c=84 BLOCK_DATA wr res=0
  kworker/u64:14-427867  [007] ..... 24997.964341: smbus_write: i2c-11 a=02c f=0040 c=4 BLOCK_DATA l=3 [02-08-00]
  kworker/u64:14-427867  [007] ..... 24997.965337: smbus_result: i2c-11 a=02c f=0000 c=4 BLOCK_DATA wr res=0
  kworker/u64:14-427867  [007] ..... 24997.965338: smbus_write: i2c-11 a=02c f=0040 c=4 BLOCK_DATA l=3 [02-08-00]
  kworker/u64:14-427867  [007] ..... 24997.966339: smbus_result: i2c-11 a=02c f=0000 c=4 BLOCK_DATA wr res=0
  kworker/u64:14-427867  [007] ..... 24997.966343: smbus_write: i2c-11 a=02c f=0040 c=4 BLOCK_DATA l=3 [02-48-00]
  kworker/u64:14-427867  [007] ..... 24997.967337: smbus_result: i2c-11 a=02c f=0000 c=4 BLOCK_DATA wr res=0
  kworker/u64:14-427867  [007] ..... 24997.967338: smbus_write: i2c-11 a=02c f=0040 c=4 BLOCK_DATA l=3 [02-c8-00]
  kworker/u64:14-427867  [007] ..... 24997.968338: smbus_result: i2c-11 a=02c f=0000 c=4 BLOCK_DATA wr res=0
  kworker/u64:14-427867  [007] ..... 24997.968341: smbus_write: i2c-11 a=02c f=0040 c=0 BLOCK_DATA l=2 [01-80]
  kworker/u64:14-427867  [007] ..... 24997.969339: smbus_result: i2c-11 a=02c f=0000 c=0 BLOCK_DATA wr res=0
     kworker/2:1-476312  [002] ..... 24998.773649: smbus_write: i2c-11 a=02c f=0040 c=85 BLOCK_DATA l=5 [04-01-02-01-01]
   systemd-sleep-476241  [002] ..... 24998.773852: suspend_resume: dpm_resume[16] end
   systemd-sleep-476241  [002] ..... 24998.773853: suspend_resume: dpm_complete[16] begin
   systemd-sleep-476241  [002] ..... 24998.774545: suspend_resume: dpm_complete[16] end
   systemd-sleep-476241  [002] ..... 24998.774550: suspend_resume: console_resume_all[3] begin
     kworker/2:1-476312  [002] ..... 24998.774717: smbus_result: i2c-11 a=02c f=0000 c=85 BLOCK_DATA wr res=0
     kworker/2:1-476312  [002] ..... 24998.774720: smbus_write: i2c-11 a=02c f=0040 c=5 BLOCK_DATA l=2 [01-e1]
   systemd-sleep-476241  [003] ..... 24998.774789: suspend_resume: console_resume_all[3] end
   systemd-sleep-476241  [003] ..... 24998.774910: suspend_resume: thaw_processes[0] begin
     kworker/2:1-476312  [002] ..... 24998.775857: smbus_result: i2c-11 a=02c f=0000 c=5 BLOCK_DATA wr res=0
   systemd-sleep-476241  [002] ..... 24998.781141: suspend_resume: thaw_processes[0] end
 irq/95-rmi4_smb-439863  [009] ..... 24998.788571: smbus_write: i2c-11 a=02c f=0040 c=86 BLOCK_DATA l=5 [04-07-00-02-00]
 irq/95-rmi4_smb-439863  [009] ..... 24998.790546: smbus_result: i2c-11 a=02c f=0000 c=86 BLOCK_DATA wr res=0
 irq/95-rmi4_smb-439863  [009] ..... 24998.790549: smbus_read: i2c-11 a=02c f=0040 c=6 BLOCK_DATA
 irq/95-rmi4_smb-439863  [009] ..... 24998.792200: smbus_reply: i2c-11 a=02c f=0000 c=6 BLOCK_DATA l=3 [02-86-00]
 irq/95-rmi4_smb-439863  [009] ..... 24998.792201: smbus_result: i2c-11 a=02c f=0000 c=6 BLOCK_DATA rd res=0
 irq/95-rmi4_smb-439863  [009] ..... 24998.792206: smbus_write: i2c-11 a=02c f=0040 c=87 BLOCK_DATA l=5 [04-03-02-0e-00]
 irq/95-rmi4_smb-439863  [009] ..... 24998.793949: smbus_result: i2c-11 a=02c f=0000 c=87 BLOCK_DATA wr res=0
 irq/95-rmi4_smb-439863  [009] ..... 24998.793951: smbus_read: i2c-11 a=02c f=0040 c=7 BLOCK_DATA
 irq/95-rmi4_smb-439863  [009] ..... 24998.796366: smbus_reply: i2c-11 a=02c f=0000 c=7 BLOCK_DATA l=15 [0e-01-fa-01-03-01-11-00-00-00-00-00-00-00-00]
 irq/95-rmi4_smb-439863  [009] ..... 24998.796367: smbus_result: i2c-11 a=02c f=0000 c=7 BLOCK_DATA rd res=0
     kworker/2:1-476312  [002] ..... 24998.797263: smbus_write: i2c-11 a=02c f=0040 c=5 BLOCK_DATA l=2 [01-e2]
     kworker/2:1-476312  [002] ..... 24998.798716: smbus_result: i2c-11 a=02c f=0000 c=5 BLOCK_DATA wr res=0
 irq/95-rmi4_smb-439863  [009] ..... 24998.830026: smbus_read: i2c-11 a=02c f=0040 c=6 BLOCK_DATA
 irq/95-rmi4_smb-439863  [009] ..... 24998.833799: smbus_reply: i2c-11 a=02c f=0000 c=6 BLOCK_DATA l=3 [02-80-00]
 irq/95-rmi4_smb-439863  [009] ..... 24998.833801: smbus_result: i2c-11 a=02c f=0000 c=6 BLOCK_DATA rd res=0
 irq/95-rmi4_smb-439863  [009] ..... 24998.833805: smbus_read: i2c-11 a=02c f=0040 c=7 BLOCK_DATA
 irq/95-rmi4_smb-439863  [009] ..... 24998.837796: smbus_reply: i2c-11 a=02c f=0000 c=7 BLOCK_DATA l=15 [0e-01-fa-00-00-00-00-00-00-00-00-00-00-00-00]
 irq/95-rmi4_smb-439863  [009] ..... 24998.837955: smbus_result: i2c-11 a=02c f=0000 c=7 BLOCK_DATA rd res=0
     kworker/2:1-476312  [002] ..... 24998.837974: smbus_write: i2c-11 a=02c f=0040 c=5 BLOCK_DATA l=2 [01-81]
     kworker/2:1-476312  [002] ..... 24998.839343: smbus_result: i2c-11 a=02c f=0000 c=5 BLOCK_DATA wr res=0
 irq/95-rmi4_smb-439863  [009] ..... 24998.870362: smbus_read: i2c-11 a=02c f=0040 c=6 BLOCK_DATA
 irq/95-rmi4_smb-439863  [009] ..... 24998.871348: smbus_reply: i2c-11 a=02c f=0000 c=6 BLOCK_DATA l=3 [02-80-00]
 irq/95-rmi4_smb-439863  [009] ..... 24998.871350: smbus_result: i2c-11 a=02c f=0000 c=6 BLOCK_DATA rd res=0
 irq/95-rmi4_smb-439863  [009] ..... 24998.871355: smbus_read: i2c-11 a=02c f=0040 c=7 BLOCK_DATA
 irq/95-rmi4_smb-439863  [009] ..... 24998.873892: smbus_reply: i2c-11 a=02c f=0000 c=7 BLOCK_DATA l=15 [0e-01-fa-00-00-00-00-00-00-00-00-00-00-00-00]
 irq/95-rmi4_smb-439863  [009] ..... 24998.873894: smbus_result: i2c-11 a=02c f=0000 c=7 BLOCK_DATA rd res=0
     kworker/2:1-476312  [002] ..... 24998.873920: smbus_write: i2c-11 a=02c f=0040 c=5 BLOCK_DATA l=2 [01-4a]
     kworker/2:1-476312  [002] ..... 24998.875129: smbus_result: i2c-11 a=02c f=0000 c=5 BLOCK_DATA wr res=0
 irq/95-rmi4_smb-439863  [009] ..... 24998.880065: smbus_read: i2c-11 a=02c f=0040 c=6 BLOCK_DATA
 irq/95-rmi4_smb-439863  [009] ..... 24998.881176: smbus_reply: i2c-11 a=02c f=0000 c=6 BLOCK_DATA l=3 [02-80-00]
 irq/95-rmi4_smb-439863  [009] ..... 24998.881178: smbus_result: i2c-11 a=02c f=0000 c=6 BLOCK_DATA rd res=0
 irq/95-rmi4_smb-439863  [009] ..... 24998.881184: smbus_read: i2c-11 a=02c f=0040 c=7 BLOCK_DATA
 irq/95-rmi4_smb-439863  [009] ..... 24998.883360: smbus_reply: i2c-11 a=02c f=0000 c=7 BLOCK_DATA l=15 [0e-01-fa-00-00-00-00-00-00-00-00-00-00-00-00]
 irq/95-rmi4_smb-439863  [009] ..... 24998.883362: smbus_result: i2c-11 a=02c f=0000 c=7 BLOCK_DATA rd res=0
     kworker/2:1-476312  [002] ..... 24998.883441: smbus_write: i2c-11 a=02c f=0040 c=5 BLOCK_DATA l=2 [01-80]
     kworker/2:1-476312  [002] ..... 24998.884586: smbus_result: i2c-11 a=02c f=0000 c=5 BLOCK_DATA wr res=0
 irq/95-rmi4_smb-439863  [009] ..... 24998.887443: smbus_read: i2c-11 a=02c f=0040 c=6 BLOCK_DATA
 irq/95-rmi4_smb-439863  [009] ..... 24998.888640: smbus_reply: i2c-11 a=02c f=0000 c=6 BLOCK_DATA l=3 [02-80-00]
 irq/95-rmi4_smb-439863  [009] ..... 24998.888642: smbus_result: i2c-11 a=02c f=0000 c=6 BLOCK_DATA rd res=0
 irq/95-rmi4_smb-439863  [009] ..... 24998.888645: smbus_read: i2c-11 a=02c f=0040 c=7 BLOCK_DATA
 irq/95-rmi4_smb-439863  [009] ..... 24998.890896: smbus_reply: i2c-11 a=02c f=0000 c=7 BLOCK_DATA l=15 [0e-01-fa-00-00-00-00-00-00-00-00-00-00-00-00]
 irq/95-rmi4_smb-439863  [009] ..... 24998.890898: smbus_result: i2c-11 a=02c f=0000 c=7 BLOCK_DATA rd res=0
     kworker/2:1-476312  [002] ..... 24998.890919: smbus_write: i2c-11 a=02c f=0040 c=5 BLOCK_DATA l=2 [01-e2]
     kworker/2:1-476312  [002] ..... 24998.892115: smbus_result: i2c-11 a=02c f=0000 c=5 BLOCK_DATA wr res=0
 irq/95-rmi4_smb-439863  [009] ..... 24998.894876: smbus_read: i2c-11 a=02c f=0040 c=6 BLOCK_DATA
 irq/95-rmi4_smb-439863  [009] ..... 24998.895859: smbus_reply: i2c-11 a=02c f=0000 c=6 BLOCK_DATA l=3 [02-80-00]
 irq/95-rmi4_smb-439863  [009] ..... 24998.895861: smbus_result: i2c-11 a=02c f=0000 c=6 BLOCK_DATA rd res=0
 irq/95-rmi4_smb-439863  [009] ..... 24998.895864: smbus_read: i2c-11 a=02c f=0040 c=7 BLOCK_DATA
 irq/95-rmi4_smb-439863  [009] ..... 24998.898384: smbus_reply: i2c-11 a=02c f=0000 c=7 BLOCK_DATA l=15 [0e-01-fa-00-00-00-00-00-00-00-00-00-00-00-00]
 irq/95-rmi4_smb-439863  [009] ..... 24998.898385: smbus_result: i2c-11 a=02c f=0000 c=7 BLOCK_DATA rd res=0
     kworker/2:1-476312  [002] ..... 24998.898830: smbus_write: i2c-11 a=02c f=0040 c=5 BLOCK_DATA l=2 [01-2c]
     kworker/2:1-476312  [002] ..... 24998.899851: smbus_result: i2c-11 a=02c f=0000 c=5 BLOCK_DATA wr res=0
 irq/95-rmi4_smb-439863  [009] ..... 24998.909674: smbus_read: i2c-11 a=02c f=0040 c=6 BLOCK_DATA
 irq/95-rmi4_smb-439863  [009] ..... 24998.910889: smbus_reply: i2c-11 a=02c f=0000 c=6 BLOCK_DATA l=3 [02-80-00]
 irq/95-rmi4_smb-439863  [009] ..... 24998.910890: smbus_result: i2c-11 a=02c f=0000 c=6 BLOCK_DATA rd res=0
 irq/95-rmi4_smb-439863  [009] ..... 24998.910895: smbus_read: i2c-11 a=02c f=0040 c=7 BLOCK_DATA
 irq/95-rmi4_smb-439863  [009] ..... 24998.913389: smbus_reply: i2c-11 a=02c f=0000 c=7 BLOCK_DATA l=15 [0e-01-fa-01-20-00-00-00-00-00-00-00-00-00-00]
 irq/95-rmi4_smb-439863  [009] ..... 24998.913390: smbus_result: i2c-11 a=02c f=0000 c=7 BLOCK_DATA rd res=0
     kworker/2:1-476312  [002] ..... 24998.913410: smbus_write: i2c-11 a=02c f=0040 c=5 BLOCK_DATA l=2 [01-f3]
     kworker/2:1-476312  [002] ..... 24998.914633: smbus_result: i2c-11 a=02c f=0000 c=5 BLOCK_DATA wr res=0
 irq/95-rmi4_smb-439863  [009] ..... 24998.917124: smbus_read: i2c-11 a=02c f=0040 c=6 BLOCK_DATA
 irq/95-rmi4_smb-439863  [009] ..... 24998.918321: smbus_reply: i2c-11 a=02c f=0000 c=6 BLOCK_DATA l=3 [02-80-00]
 irq/95-rmi4_smb-439863  [009] ..... 24998.918322: smbus_result: i2c-11 a=02c f=0000 c=6 BLOCK_DATA rd res=0
 irq/95-rmi4_smb-439863  [009] ..... 24998.918325: smbus_read: i2c-11 a=02c f=0040 c=7 BLOCK_DATA
 irq/95-rmi4_smb-439863  [009] ..... 24998.920397: smbus_reply: i2c-11 a=02c f=0000 c=7 BLOCK_DATA l=15 [0e-01-fa-00-00-00-00-00-00-00-00-00-00-00-00]
 irq/95-rmi4_smb-439863  [009] ..... 24998.920398: smbus_result: i2c-11 a=02c f=0000 c=7 BLOCK_DATA rd res=0
     kworker/2:1-476312  [002] ..... 24998.920417: smbus_write: i2c-11 a=02c f=0040 c=5 BLOCK_DATA l=2 [01-64]
     kworker/2:1-476312  [002] ..... 24998.921131: smbus_result: i2c-11 a=02c f=0000 c=5 BLOCK_DATA wr res=0
 irq/95-rmi4_smb-439863  [009] ..... 24998.924564: smbus_read: i2c-11 a=02c f=0040 c=6 BLOCK_DATA
 irq/95-rmi4_smb-439863  [009] ..... 24998.925800: smbus_reply: i2c-11 a=02c f=0000 c=6 BLOCK_DATA l=3 [02-80-00]
 irq/95-rmi4_smb-439863  [009] ..... 24998.925801: smbus_result: i2c-11 a=02c f=0000 c=6 BLOCK_DATA rd res=0
 irq/95-rmi4_smb-439863  [009] ..... 24998.925805: smbus_read: i2c-11 a=02c f=0040 c=7 BLOCK_DATA
 irq/95-rmi4_smb-439863  [009] ..... 24998.927933: smbus_reply: i2c-11 a=02c f=0000 c=7 BLOCK_DATA l=15 [0e-01-fa-00-00-00-00-00-00-00-00-00-00-00-00]
 irq/95-rmi4_smb-439863  [009] ..... 24998.927934: smbus_result: i2c-11 a=02c f=0000 c=7 BLOCK_DATA rd res=0
     kworker/2:1-476312  [002] ..... 24998.927970: smbus_write: i2c-11 a=02c f=0040 c=5 BLOCK_DATA l=2 [01-e8]
     kworker/2:1-476312  [002] ..... 24998.929174: smbus_result: i2c-11 a=02c f=0000 c=5 BLOCK_DATA wr res=0
 irq/95-rmi4_smb-439863  [009] ..... 24998.931956: smbus_read: i2c-11 a=02c f=0040 c=6 BLOCK_DATA
 irq/95-rmi4_smb-439863  [009] ..... 24998.933184: smbus_reply: i2c-11 a=02c f=0000 c=6 BLOCK_DATA l=3 [02-80-00]
 irq/95-rmi4_smb-439863  [009] ..... 24998.933185: smbus_result: i2c-11 a=02c f=0000 c=6 BLOCK_DATA rd res=0
 irq/95-rmi4_smb-439863  [009] ..... 24998.933189: smbus_read: i2c-11 a=02c f=0040 c=7 BLOCK_DATA
 irq/95-rmi4_smb-439863  [009] ..... 24998.935421: smbus_reply: i2c-11 a=02c f=0000 c=7 BLOCK_DATA l=15 [0e-01-fa-00-00-00-00-00-00-00-00-00-00-00-00]
 irq/95-rmi4_smb-439863  [009] ..... 24998.935422: smbus_result: i2c-11 a=02c f=0000 c=7 BLOCK_DATA rd res=0
     kworker/2:1-476312  [002] ..... 24998.935455: smbus_write: i2c-11 a=02c f=0040 c=5 BLOCK_DATA l=2 [01-03]
     kworker/2:1-476312  [002] ..... 24998.936681: smbus_result: i2c-11 a=02c f=0000 c=5 BLOCK_DATA wr res=0
 irq/95-rmi4_smb-439863  [009] ..... 24998.939404: smbus_read: i2c-11 a=02c f=0040 c=6 BLOCK_DATA
 irq/95-rmi4_smb-439863  [009] ..... 24998.940638: smbus_reply: i2c-11 a=02c f=0000 c=6 BLOCK_DATA l=3 [02-80-00]
 irq/95-rmi4_smb-439863  [009] ..... 24998.940639: smbus_result: i2c-11 a=02c f=0000 c=6 BLOCK_DATA rd res=0
 irq/95-rmi4_smb-439863  [009] ..... 24998.940642: smbus_read: i2c-11 a=02c f=0040 c=7 BLOCK_DATA
 irq/95-rmi4_smb-439863  [009] ..... 24998.942927: smbus_reply: i2c-11 a=02c f=0000 c=7 BLOCK_DATA l=15 [0e-01-fa-00-00-00-00-00-00-00-00-00-00-00-00]
 irq/95-rmi4_smb-439863  [009] ..... 24998.942928: smbus_result: i2c-11 a=02c f=0000 c=7 BLOCK_DATA rd res=0
     kworker/2:1-476312  [002] ..... 24998.943346: smbus_write: i2c-11 a=02c f=0040 c=5 BLOCK_DATA l=2 [01-e6]
     kworker/2:1-476312  [002] ..... 24998.944417: smbus_result: i2c-11 a=02c f=0000 c=5 BLOCK_DATA wr res=0
 irq/95-rmi4_smb-439863  [009] ..... 24998.946805: smbus_read: i2c-11 a=02c f=0040 c=6 BLOCK_DATA
 irq/95-rmi4_smb-439863  [009] ..... 24998.947862: smbus_reply: i2c-11 a=02c f=0000 c=6 BLOCK_DATA l=3 [02-80-00]
 irq/95-rmi4_smb-439863  [009] ..... 24998.947863: smbus_result: i2c-11 a=02c f=0000 c=6 BLOCK_DATA rd res=0
 irq/95-rmi4_smb-439863  [009] ..... 24998.947866: smbus_read: i2c-11 a=02c f=0040 c=7 BLOCK_DATA
 irq/95-rmi4_smb-439863  [009] ..... 24998.949928: smbus_reply: i2c-11 a=02c f=0000 c=7 BLOCK_DATA l=15 [0e-01-fa-00-00-00-00-00-00-00-00-00-00-00-00]
 irq/95-rmi4_smb-439863  [009] ..... 24998.949929: smbus_result: i2c-11 a=02c f=0000 c=7 BLOCK_DATA rd res=0
     kworker/2:1-476312  [002] ..... 24998.949958: smbus_write: i2c-11 a=02c f=0040 c=5 BLOCK_DATA l=2 [01-f4]
     kworker/2:1-476312  [002] ..... 24998.950656: smbus_result: i2c-11 a=02c f=0000 c=5 BLOCK_DATA wr res=0
 irq/95-rmi4_smb-439863  [009] ..... 24998.954234: smbus_read: i2c-11 a=02c f=0040 c=6 BLOCK_DATA
 irq/95-rmi4_smb-439863  [009] ..... 24998.955383: smbus_reply: i2c-11 a=02c f=0000 c=6 BLOCK_DATA l=3 [02-80-00]
 irq/95-rmi4_smb-439863  [009] ..... 24998.955384: smbus_result: i2c-11 a=02c f=0000 c=6 BLOCK_DATA rd res=0
 irq/95-rmi4_smb-439863  [009] ..... 24998.955387: smbus_read: i2c-11 a=02c f=0040 c=7 BLOCK_DATA
 irq/95-rmi4_smb-439863  [009] ..... 24998.957949: smbus_reply: i2c-11 a=02c f=0000 c=7 BLOCK_DATA l=15 [0e-01-fa-00-00-00-00-00-00-00-00-00-00-00-00]
 irq/95-rmi4_smb-439863  [009] ..... 24998.957950: smbus_result: i2c-11 a=02c f=0000 c=7 BLOCK_DATA rd res=0
 irq/95-rmi4_smb-439863  [009] ..... 25000.577841: smbus_read: i2c-11 a=02c f=0040 c=6 BLOCK_DATA
 irq/95-rmi4_smb-439863  [009] ..... 25000.578954: smbus_reply: i2c-11 a=02c f=0000 c=6 BLOCK_DATA l=3 [02-18-00]
 irq/95-rmi4_smb-439863  [009] ..... 25000.578956: smbus_result: i2c-11 a=02c f=0000 c=6 BLOCK_DATA rd res=0
 irq/95-rmi4_smb-439863  [009] ..... 25000.578963: smbus_write: i2c-11 a=02c f=0040 c=80 BLOCK_DATA l=5 [04-0c-00-20-00]
 irq/95-rmi4_smb-439863  [009] ..... 25000.580221: smbus_result: i2c-11 a=02c f=0000 c=80 BLOCK_DATA wr res=0
 irq/95-rmi4_smb-439863  [009] ..... 25000.580223: smbus_read: i2c-11 a=02c f=0040 c=0 BLOCK_DATA
 irq/95-rmi4_smb-439863  [009] ..... 25000.584494: smbus_reply: i2c-11 a=02c f=0000 c=0 BLOCK_DATA l=33 [20-01-72-04-6a-02-47-04-07-00-00-00-00-00-00-00-00-00-00-00-00-00-00-00-00-00-00-00-00-00-00-00-00]
 irq/95-rmi4_smb-439863  [009] ..... 25000.584495: smbus_result: i2c-11 a=02c f=0000 c=0 BLOCK_DATA rd res=0
 irq/95-rmi4_smb-439863  [009] ..... 25000.584497: smbus_write: i2c-11 a=02c f=0040 c=81 BLOCK_DATA l=5 [04-2c-00-20-00]
 irq/95-rmi4_smb-439863  [009] ..... 25000.585738: smbus_result: i2c-11 a=02c f=0000 c=81 BLOCK_DATA wr res=0
 irq/95-rmi4_smb-439863  [009] ..... 25000.585740: smbus_read: i2c-11 a=02c f=0040 c=1 BLOCK_DATA
 irq/95-rmi4_smb-439863  [009] ..... 25000.590016: smbus_reply: i2c-11 a=02c f=0000 c=1 BLOCK_DATA l=33 [20-04-10-00-80-00-7a-15-06-00-81-02-fe-01-00-00-01-e0-01-04-00-00-00-00-00-00-c4-54-4d-33-34-37-31]
 irq/95-rmi4_smb-439863  [009] ..... 25000.590017: smbus_result: i2c-11 a=02c f=0000 c=1 BLOCK_DATA rd res=0
 irq/95-rmi4_smb-439863  [009] ..... 25000.590018: smbus_write: i2c-11 a=02c f=0040 c=82 BLOCK_DATA l=5 [04-4c-00-0f-00]
 irq/95-rmi4_smb-439863  [009] ..... 25000.591274: smbus_result: i2c-11 a=02c f=0000 c=82 BLOCK_DATA wr res=0
 irq/95-rmi4_smb-439863  [009] ..... 25000.591275: smbus_read: i2c-11 a=02c f=0040 c=2 BLOCK_DATA
 irq/95-rmi4_smb-439863  [009] ..... 25000.593960: smbus_reply: i2c-11 a=02c f=0000 c=2 BLOCK_DATA l=16 [0f-44-57-20-52-35-2e-30-2e-30-00-00-00-00-00-00]
 irq/95-rmi4_smb-439863  [009] ..... 25000.593961: smbus_result: i2c-11 a=02c f=0000 c=2 BLOCK_DATA rd res=0
 irq/95-rmi4_smb-439863  [009] ..... 25000.594928: smbus_read: i2c-11 a=02c f=0040 c=6 BLOCK_DATA
 irq/95-rmi4_smb-439863  [009] ..... 25000.596198: smbus_reply: i2c-11 a=02c f=0000 c=6 BLOCK_DATA l=3 [02-18-00]
 irq/95-rmi4_smb-439863  [009] ..... 25000.596199: smbus_result: i2c-11 a=02c f=0000 c=6 BLOCK_DATA rd res=0
 irq/95-rmi4_smb-439863  [009] ..... 25000.596204: smbus_read: i2c-11 a=02c f=0040 c=0 BLOCK_DATA
 irq/95-rmi4_smb-439863  [009] ..... 25000.600041: smbus_reply: i2c-11 a=02c f=0000 c=0 BLOCK_DATA l=33 [20-01-6e-04-6d-02-48-04-07-00-00-00-00-00-00-00-00-00-00-00-00-00-00-00-00-00-00-00-00-00-00-00-00]
 irq/95-rmi4_smb-439863  [009] ..... 25000.600042: smbus_result: i2c-11 a=02c f=0000 c=0 BLOCK_DATA rd res=0
 irq/95-rmi4_smb-439863  [009] ..... 25000.600044: smbus_read: i2c-11 a=02c f=0040 c=1 BLOCK_DATA
 irq/95-rmi4_smb-439863  [009] ..... 25000.604039: smbus_reply: i2c-11 a=02c f=0000 c=1 BLOCK_DATA l=33 [20-04-10-00-80-00-7a-15-06-00-81-02-fe-01-00-00-01-e0-01-04-00-00-00-00-00-00-c4-54-4d-33-34-37-31]
 irq/95-rmi4_smb-439863  [009] ..... 25000.604041: smbus_result: i2c-11 a=02c f=0000 c=1 BLOCK_DATA rd res=0
 irq/95-rmi4_smb-439863  [009] ..... 25000.604043: smbus_read: i2c-11 a=02c f=0040 c=2 BLOCK_DATA
 irq/95-rmi4_smb-439863  [009] ..... 25000.606413: smbus_reply: i2c-11 a=02c f=0000 c=2 BLOCK_DATA l=16 [0f-44-57-20-52-35-2e-30-2e-30-00-00-00-00-00-00]
 irq/95-rmi4_smb-439863  [009] ..... 25000.606416: smbus_result: i2c-11 a=02c f=0000 c=2 BLOCK_DATA rd res=0
 irq/95-rmi4_smb-439863  [009] ..... 25000.607506: smbus_read: i2c-11 a=02c f=0040 c=6 BLOCK_DATA
 irq/95-rmi4_smb-439863  [009] ..... 25000.608770: smbus_reply: i2c-11 a=02c f=0000 c=6 BLOCK_DATA l=3 [02-18-00]
 irq/95-rmi4_smb-439863  [009] ..... 25000.608771: smbus_result: i2c-11 a=02c f=0000 c=6 BLOCK_DATA rd res=0
 irq/95-rmi4_smb-439863  [009] ..... 25000.608775: smbus_read: i2c-11 a=02c f=0040 c=0 BLOCK_DATA
 irq/95-rmi4_smb-439863  [009] ..... 25000.613034: smbus_reply: i2c-11 a=02c f=0000 c=0 BLOCK_DATA l=33 [20-01-64-04-73-02-49-04-07-00-00-00-00-00-00-00-00-00-00-00-00-00-00-00-00-00-00-00-00-00-00-00-00]
 irq/95-rmi4_smb-439863  [009] ..... 25000.613035: smbus_result: i2c-11 a=02c f=0000 c=0 BLOCK_DATA rd res=0
 irq/95-rmi4_smb-439863  [009] ..... 25000.613037: smbus_read: i2c-11 a=02c f=0040 c=1 BLOCK_DATA
 irq/95-rmi4_smb-439863  [009] ..... 25000.617044: smbus_reply: i2c-11 a=02c f=0000 c=1 BLOCK_DATA l=33 [20-04-10-00-80-00-7a-15-06-00-81-02-fe-01-00-00-01-e0-01-04-00-00-00-00-00-00-c4-54-4d-33-34-37-31]
 irq/95-rmi4_smb-439863  [009] ..... 25000.617045: smbus_result: i2c-11 a=02c f=0000 c=1 BLOCK_DATA rd res=0
 irq/95-rmi4_smb-439863  [009] ..... 25000.617047: smbus_read: i2c-11 a=02c f=0040 c=2 BLOCK_DATA
 irq/95-rmi4_smb-439863  [009] ..... 25000.619412: smbus_reply: i2c-11 a=02c f=0000 c=2 BLOCK_DATA l=16 [0f-44-57-20-52-35-2e-30-2e-30-00-00-00-00-00-00]
 irq/95-rmi4_smb-439863  [009] ..... 25000.619413: smbus_result: i2c-11 a=02c f=0000 c=2 BLOCK_DATA rd res=0
 irq/95-rmi4_smb-439863  [009] ..... 25000.622206: smbus_read: i2c-11 a=02c f=0040 c=6 BLOCK_DATA
 irq/95-rmi4_smb-439863  [009] ..... 25000.623387: smbus_reply: i2c-11 a=02c f=0000 c=6 BLOCK_DATA l=3 [02-18-00]
 irq/95-rmi4_smb-439863  [009] ..... 25000.623388: smbus_result: i2c-11 a=02c f=0000 c=6 BLOCK_DATA rd res=0
 irq/95-rmi4_smb-439863  [009] ..... 25000.623391: smbus_read: i2c-11 a=02c f=0040 c=0 BLOCK_DATA
 irq/95-rmi4_smb-439863  [009] ..... 25000.627451: smbus_reply: i2c-11 a=02c f=0000 c=0 BLOCK_DATA l=33 [20-01-60-04-75-02-49-04-07-00-00-00-00-00-00-00-00-00-00-00-00-00-00-00-00-00-00-00-00-00-00-00-00]
 irq/95-rmi4_smb-439863  [009] ..... 25000.627452: smbus_result: i2c-11 a=02c f=0000 c=0 BLOCK_DATA rd res=0
 irq/95-rmi4_smb-439863  [009] ..... 25000.627454: smbus_read: i2c-11 a=02c f=0040 c=1 BLOCK_DATA
 irq/95-rmi4_smb-439863  [009] ..... 25000.631498: smbus_reply: i2c-11 a=02c f=0000 c=1 BLOCK_DATA l=33 [20-04-10-00-80-00-7a-15-06-00-81-02-fe-01-00-00-01-e0-01-04-00-00-00-00-00-00-c4-54-4d-33-34-37-31]
 irq/95-rmi4_smb-439863  [009] ..... 25000.631499: smbus_result: i2c-11 a=02c f=0000 c=1 BLOCK_DATA rd res=0
 irq/95-rmi4_smb-439863  [009] ..... 25000.631501: smbus_read: i2c-11 a=02c f=0040 c=2 BLOCK_DATA
 irq/95-rmi4_smb-439863  [009] ..... 25000.633910: smbus_reply: i2c-11 a=02c f=0000 c=2 BLOCK_DATA l=16 [0f-44-57-20-52-35-2e-30-2e-30-00-00-00-00-00-00]
 irq/95-rmi4_smb-439863  [009] ..... 25000.633911: smbus_result: i2c-11 a=02c f=0000 c=2 BLOCK_DATA rd res=0
 irq/95-rmi4_smb-439863  [009] ..... 25000.637319: smbus_read: i2c-11 a=02c f=0040 c=6 BLOCK_DATA
 irq/95-rmi4_smb-439863  [009] ..... 25000.638403: smbus_reply: i2c-11 a=02c f=0000 c=6 BLOCK_DATA l=3 [02-18-00]
 irq/95-rmi4_smb-439863  [009] ..... 25000.638405: smbus_result: i2c-11 a=02c f=0000 c=6 BLOCK_DATA rd res=0
 irq/95-rmi4_smb-439863  [009] ..... 25000.638413: smbus_read: i2c-11 a=02c f=0040 c=0 BLOCK_DATA
 irq/95-rmi4_smb-439863  [009] ..... 25000.642510: smbus_reply: i2c-11 a=02c f=0000 c=0 BLOCK_DATA l=33 [20-01-5e-04-76-02-49-04-07-00-00-00-00-00-00-00-00-00-00-00-00-00-00-00-00-00-00-00-00-00-00-00-00]
 irq/95-rmi4_smb-439863  [009] ..... 25000.642511: smbus_result: i2c-11 a=02c f=0000 c=0 BLOCK_DATA rd res=0
 irq/95-rmi4_smb-439863  [009] ..... 25000.642513: smbus_read: i2c-11 a=02c f=0040 c=1 BLOCK_DATA
 irq/95-rmi4_smb-439863  [009] ..... 25000.646496: smbus_reply: i2c-11 a=02c f=0000 c=1 BLOCK_DATA l=33 [20-04-10-00-80-00-7a-15-06-00-81-02-fe-01-00-00-01-e0-01-04-00-00-00-00-00-00-c4-54-4d-33-34-37-31]
 irq/95-rmi4_smb-439863  [009] ..... 25000.646497: smbus_result: i2c-11 a=02c f=0000 c=1 BLOCK_DATA rd res=0
 irq/95-rmi4_smb-439863  [009] ..... 25000.646499: smbus_read: i2c-11 a=02c f=0040 c=2 BLOCK_DATA
 irq/95-rmi4_smb-439863  [009] ..... 25000.648904: smbus_reply: i2c-11 a=02c f=0000 c=2 BLOCK_DATA l=16 [0f-44-57-20-52-35-2e-30-2e-30-00-00-00-00-00-00]
 irq/95-rmi4_smb-439863  [009] ..... 25000.648905: smbus_result: i2c-11 a=02c f=0000 c=2 BLOCK_DATA rd res=0
 irq/95-rmi4_smb-439863  [009] ..... 25000.651925: smbus_read: i2c-11 a=02c f=0040 c=6 BLOCK_DATA
 irq/95-rmi4_smb-439863  [009] ..... 25000.653238: smbus_reply: i2c-11 a=02c f=0000 c=6 BLOCK_DATA l=3 [02-18-00]
 irq/95-rmi4_smb-439863  [009] ..... 25000.653239: smbus_result: i2c-11 a=02c f=0000 c=6 BLOCK_DATA rd res=0
 irq/95-rmi4_smb-439863  [009] ..... 25000.653245: smbus_read: i2c-11 a=02c f=0040 c=0 BLOCK_DATA
 irq/95-rmi4_smb-439863  [009] ..... 25000.657513: smbus_reply: i2c-11 a=02c f=0000 c=0 BLOCK_DATA l=33 [20-01-5d-04-76-02-49-04-07-00-00-00-00-00-00-00-00-00-00-00-00-00-00-00-00-00-00-00-00-00-00-00-00]
 irq/95-rmi4_smb-439863  [009] ..... 25000.657514: smbus_result: i2c-11 a=02c f=0000 c=0 BLOCK_DATA rd res=0
 irq/95-rmi4_smb-439863  [009] ..... 25000.657516: smbus_read: i2c-11 a=02c f=0040 c=1 BLOCK_DATA
 irq/95-rmi4_smb-439863  [009] ..... 25000.661493: smbus_reply: i2c-11 a=02c f=0000 c=1 BLOCK_DATA l=33 [20-04-10-00-80-00-7a-15-06-00-81-02-fe-01-00-00-01-e0-01-04-00-00-00-00-00-00-c4-54-4d-33-34-37-31]
 irq/95-rmi4_smb-439863  [009] ..... 25000.661495: smbus_result: i2c-11 a=02c f=0000 c=1 BLOCK_DATA rd res=0
 irq/95-rmi4_smb-439863  [009] ..... 25000.661496: smbus_read: i2c-11 a=02c f=0040 c=2 BLOCK_DATA
 irq/95-rmi4_smb-439863  [009] ..... 25000.663904: smbus_reply: i2c-11 a=02c f=0000 c=2 BLOCK_DATA l=16 [0f-44-57-20-52-35-2e-30-2e-30-00-00-00-00-00-00]
 irq/95-rmi4_smb-439863  [009] ..... 25000.663905: smbus_result: i2c-11 a=02c f=0000 c=2 BLOCK_DATA rd res=0
 irq/95-rmi4_smb-439863  [009] ..... 25000.666674: smbus_read: i2c-11 a=02c f=0040 c=6 BLOCK_DATA
 irq/95-rmi4_smb-439863  [009] ..... 25000.667909: smbus_reply: i2c-11 a=02c f=0000 c=6 BLOCK_DATA l=3 [02-18-00]
 irq/95-rmi4_smb-439863  [009] ..... 25000.667909: smbus_result: i2c-11 a=02c f=0000 c=6 BLOCK_DATA rd res=0
 irq/95-rmi4_smb-439863  [009] ..... 25000.667912: smbus_read: i2c-11 a=02c f=0040 c=0 BLOCK_DATA
 irq/95-rmi4_smb-439863  [009] ..... 25000.672047: smbus_reply: i2c-11 a=02c f=0000 c=0 BLOCK_DATA l=33 [20-01-5d-04-76-02-48-04-07-00-00-00-00-00-00-00-00-00-00-00-00-00-00-00-00-00-00-00-00-00-00-00-00]
 irq/95-rmi4_smb-439863  [009] ..... 25000.672048: smbus_result: i2c-11 a=02c f=0000 c=0 BLOCK_DATA rd res=0
 irq/95-rmi4_smb-439863  [009] ..... 25000.672050: smbus_read: i2c-11 a=02c f=0040 c=1 BLOCK_DATA
 irq/95-rmi4_smb-439863  [009] ..... 25000.676039: smbus_reply: i2c-11 a=02c f=0000 c=1 BLOCK_DATA l=33 [20-04-10-00-80-00-7a-15-06-00-81-02-fe-01-00-00-01-e0-01-04-00-00-00-00-00-00-c4-54-4d-33-34-37-31]
 irq/95-rmi4_smb-439863  [009] ..... 25000.676040: smbus_result: i2c-11 a=02c f=0000 c=1 BLOCK_DATA rd res=0
 irq/95-rmi4_smb-439863  [009] ..... 25000.676042: smbus_read: i2c-11 a=02c f=0040 c=2 BLOCK_DATA
 irq/95-rmi4_smb-439863  [009] ..... 25000.678427: smbus_reply: i2c-11 a=02c f=0000 c=2 BLOCK_DATA l=16 [0f-44-57-20-52-35-2e-30-2e-30-00-00-00-00-00-00]
 irq/95-rmi4_smb-439863  [009] ..... 25000.678428: smbus_result: i2c-11 a=02c f=0000 c=2 BLOCK_DATA rd res=0
 irq/95-rmi4_smb-439863  [009] ..... 25000.681765: smbus_read: i2c-11 a=02c f=0040 c=6 BLOCK_DATA
 irq/95-rmi4_smb-439863  [009] ..... 25000.682940: smbus_reply: i2c-11 a=02c f=0000 c=6 BLOCK_DATA l=3 [02-18-00]
 irq/95-rmi4_smb-439863  [009] ..... 25000.682941: smbus_result: i2c-11 a=02c f=0000 c=6 BLOCK_DATA rd res=0
 irq/95-rmi4_smb-439863  [009] ..... 25000.682945: smbus_read: i2c-11 a=02c f=0040 c=0 BLOCK_DATA
 irq/95-rmi4_smb-439863  [009] ..... 25000.687042: smbus_reply: i2c-11 a=02c f=0000 c=0 BLOCK_DATA l=33 [20-01-5c-04-76-02-47-04-07-00-00-00-00-00-00-00-00-00-00-00-00-00-00-00-00-00-00-00-00-00-00-00-00]
 irq/95-rmi4_smb-439863  [009] ..... 25000.687044: smbus_result: i2c-11 a=02c f=0000 c=0 BLOCK_DATA rd res=0
 irq/95-rmi4_smb-439863  [009] ..... 25000.687045: smbus_read: i2c-11 a=02c f=0040 c=1 BLOCK_DATA
 irq/95-rmi4_smb-439863  [009] ..... 25000.691064: smbus_reply: i2c-11 a=02c f=0000 c=1 BLOCK_DATA l=33 [20-04-10-00-80-00-7a-15-06-00-81-02-fe-01-00-00-01-e0-01-04-00-00-00-00-00-00-c4-54-4d-33-34-37-31]
 irq/95-rmi4_smb-439863  [009] ..... 25000.691065: smbus_result: i2c-11 a=02c f=0000 c=1 BLOCK_DATA rd res=0
 irq/95-rmi4_smb-439863  [009] ..... 25000.691067: smbus_read: i2c-11 a=02c f=0040 c=2 BLOCK_DATA
 irq/95-rmi4_smb-439863  [009] ..... 25000.693446: smbus_reply: i2c-11 a=02c f=0000 c=2 BLOCK_DATA l=16 [0f-44-57-20-52-35-2e-30-2e-30-00-00-00-00-00-00]
 irq/95-rmi4_smb-439863  [009] ..... 25000.693448: smbus_result: i2c-11 a=02c f=0000 c=2 BLOCK_DATA rd res=0
 irq/95-rmi4_smb-439863  [009] ..... 25000.696463: smbus_read: i2c-11 a=02c f=0040 c=6 BLOCK_DATA
 irq/95-rmi4_smb-439863  [009] ..... 25000.697810: smbus_reply: i2c-11 a=02c f=0000 c=6 BLOCK_DATA l=3 [02-18-00]
 irq/95-rmi4_smb-439863  [009] ..... 25000.697812: smbus_result: i2c-11 a=02c f=0000 c=6 BLOCK_DATA rd res=0
 irq/95-rmi4_smb-439863  [009] ..... 25000.697817: smbus_read: i2c-11 a=02c f=0040 c=0 BLOCK_DATA
 irq/95-rmi4_smb-439863  [009] ..... 25000.702017: smbus_reply: i2c-11 a=02c f=0000 c=0 BLOCK_DATA l=33 [20-01-5c-04-77-02-46-04-07-00-00-00-00-00-00-00-00-00-00-00-00-00-00-00-00-00-00-00-00-00-00-00-00]
 irq/95-rmi4_smb-439863  [009] ..... 25000.702018: smbus_result: i2c-11 a=02c f=0000 c=0 BLOCK_DATA rd res=0
 irq/95-rmi4_smb-439863  [009] ..... 25000.702019: smbus_read: i2c-11 a=02c f=0040 c=1 BLOCK_DATA
 irq/95-rmi4_smb-439863  [009] ..... 25000.706046: smbus_reply: i2c-11 a=02c f=0000 c=1 BLOCK_DATA l=33 [20-04-10-00-80-00-7a-15-06-00-81-02-fe-01-00-00-01-e0-01-04-00-00-00-00-00-00-c4-54-4d-33-34-37-31]
 irq/95-rmi4_smb-439863  [009] ..... 25000.706047: smbus_result: i2c-11 a=02c f=0000 c=1 BLOCK_DATA rd res=0
 irq/95-rmi4_smb-439863  [009] ..... 25000.706049: smbus_read: i2c-11 a=02c f=0040 c=2 BLOCK_DATA
 irq/95-rmi4_smb-439863  [009] ..... 25000.708450: smbus_reply: i2c-11 a=02c f=0000 c=2 BLOCK_DATA l=16 [0f-44-57-20-52-35-2e-30-2e-30-00-00-00-00-00-00]
 irq/95-rmi4_smb-439863  [009] ..... 25000.708452: smbus_result: i2c-11 a=02c f=0000 c=2 BLOCK_DATA rd res=0
 irq/95-rmi4_smb-439863  [009] ..... 25000.711239: smbus_read: i2c-11 a=02c f=0040 c=6 BLOCK_DATA
 irq/95-rmi4_smb-439863  [009] ..... 25000.712430: smbus_reply: i2c-11 a=02c f=0000 c=6 BLOCK_DATA l=3 [02-18-00]
 irq/95-rmi4_smb-439863  [009] ..... 25000.712433: smbus_result: i2c-11 a=02c f=0000 c=6 BLOCK_DATA rd res=0
 irq/95-rmi4_smb-439863  [009] ..... 25000.712438: smbus_read: i2c-11 a=02c f=0040 c=0 BLOCK_DATA
 irq/95-rmi4_smb-439863  [009] ..... 25000.716485: smbus_reply: i2c-11 a=02c f=0000 c=0 BLOCK_DATA l=33 [20-01-5c-04-77-02-43-04-07-00-00-00-00-00-00-00-00-00-00-00-00-00-00-00-00-00-00-00-00-00-00-00-00]
 irq/95-rmi4_smb-439863  [009] ..... 25000.716485: smbus_result: i2c-11 a=02c f=0000 c=0 BLOCK_DATA rd res=0
 irq/95-rmi4_smb-439863  [009] ..... 25000.716487: smbus_read: i2c-11 a=02c f=0040 c=1 BLOCK_DATA
 irq/95-rmi4_smb-439863  [009] ..... 25000.720517: smbus_reply: i2c-11 a=02c f=0000 c=1 BLOCK_DATA l=33 [20-04-10-00-80-00-7a-15-06-00-81-02-fe-01-00-00-01-e0-01-04-00-00-00-00-00-00-c4-54-4d-33-34-37-31]
 irq/95-rmi4_smb-439863  [009] ..... 25000.720519: smbus_result: i2c-11 a=02c f=0000 c=1 BLOCK_DATA rd res=0
 irq/95-rmi4_smb-439863  [009] ..... 25000.720520: smbus_read: i2c-11 a=02c f=0040 c=2 BLOCK_DATA
 irq/95-rmi4_smb-439863  [009] ..... 25000.722928: smbus_reply: i2c-11 a=02c f=0000 c=2 BLOCK_DATA l=16 [0f-44-57-20-52-35-2e-30-2e-30-00-00-00-00-00-00]
 irq/95-rmi4_smb-439863  [009] ..... 25000.722929: smbus_result: i2c-11 a=02c f=0000 c=2 BLOCK_DATA rd res=0
 irq/95-rmi4_smb-439863  [009] ..... 25000.725983: smbus_read: i2c-11 a=02c f=0040 c=6 BLOCK_DATA
 irq/95-rmi4_smb-439863  [009] ..... 25000.727284: smbus_reply: i2c-11 a=02c f=0000 c=6 BLOCK_DATA l=3 [02-18-00]
 irq/95-rmi4_smb-439863  [009] ..... 25000.727285: smbus_result: i2c-11 a=02c f=0000 c=6 BLOCK_DATA rd res=0
 irq/95-rmi4_smb-439863  [009] ..... 25000.727289: smbus_read: i2c-11 a=02c f=0040 c=0 BLOCK_DATA
 irq/95-rmi4_smb-439863  [009] ..... 25000.731606: smbus_reply: i2c-11 a=02c f=0000 c=0 BLOCK_DATA l=33 [20-01-5c-04-77-02-3d-04-07-00-00-00-00-00-00-00-00-00-00-00-00-00-00-00-00-00-00-00-00-00-00-00-00]
 irq/95-rmi4_smb-439863  [009] ..... 25000.731607: smbus_result: i2c-11 a=02c f=0000 c=0 BLOCK_DATA rd res=0
 irq/95-rmi4_smb-439863  [009] ..... 25000.731609: smbus_read: i2c-11 a=02c f=0040 c=1 BLOCK_DATA
 irq/95-rmi4_smb-439863  [009] ..... 25000.735793: smbus_reply: i2c-11 a=02c f=0000 c=1 BLOCK_DATA l=33 [20-04-10-00-80-00-7a-15-06-00-81-02-fe-01-00-00-01-e0-01-04-00-00-00-00-00-00-c4-54-4d-33-34-37-31]
 irq/95-rmi4_smb-439863  [009] ..... 25000.735794: smbus_result: i2c-11 a=02c f=0000 c=1 BLOCK_DATA rd res=0
 irq/95-rmi4_smb-439863  [009] ..... 25000.735797: smbus_read: i2c-11 a=02c f=0040 c=2 BLOCK_DATA
 irq/95-rmi4_smb-439863  [009] ..... 25000.738440: smbus_reply: i2c-11 a=02c f=0000 c=2 BLOCK_DATA l=16 [0f-44-57-20-52-35-2e-30-2e-30-00-00-00-00-00-00]
 irq/95-rmi4_smb-439863  [009] ..... 25000.738441: smbus_result: i2c-11 a=02c f=0000 c=2 BLOCK_DATA rd res=0
 irq/95-rmi4_smb-439863  [009] ..... 25000.740824: smbus_read: i2c-11 a=02c f=0040 c=6 BLOCK_DATA
 irq/95-rmi4_smb-439863  [009] ..... 25000.741932: smbus_reply: i2c-11 a=02c f=0000 c=6 BLOCK_DATA l=3 [02-18-00]
 irq/95-rmi4_smb-439863  [009] ..... 25000.741933: smbus_result: i2c-11 a=02c f=0000 c=6 BLOCK_DATA rd res=0
 irq/95-rmi4_smb-439863  [009] ..... 25000.741937: smbus_read: i2c-11 a=02c f=0040 c=0 BLOCK_DATA
 irq/95-rmi4_smb-439863  [009] ..... 25000.746028: smbus_reply: i2c-11 a=02c f=0000 c=0 BLOCK_DATA l=33 [20-01-5e-04-7b-02-34-04-06-00-00-00-00-00-00-00-00-00-00-00-00-00-00-00-00-00-00-00-00-00-00-00-00]
 irq/95-rmi4_smb-439863  [009] ..... 25000.746029: smbus_result: i2c-11 a=02c f=0000 c=0 BLOCK_DATA rd res=0
 irq/95-rmi4_smb-439863  [009] ..... 25000.746031: smbus_read: i2c-11 a=02c f=0040 c=1 BLOCK_DATA
 irq/95-rmi4_smb-439863  [009] ..... 25000.750041: smbus_reply: i2c-11 a=02c f=0000 c=1 BLOCK_DATA l=33 [20-04-10-00-80-00-7a-15-06-00-81-02-fe-01-00-00-01-e0-01-04-00-00-00-00-00-00-c4-54-4d-33-34-37-31]
 irq/95-rmi4_smb-439863  [009] ..... 25000.750042: smbus_result: i2c-11 a=02c f=0000 c=1 BLOCK_DATA rd res=0
 irq/95-rmi4_smb-439863  [009] ..... 25000.750044: smbus_read: i2c-11 a=02c f=0040 c=2 BLOCK_DATA
 irq/95-rmi4_smb-439863  [009] ..... 25000.752441: smbus_reply: i2c-11 a=02c f=0000 c=2 BLOCK_DATA l=16 [0f-44-57-20-52-35-2e-30-2e-30-00-00-00-00-00-00]
 irq/95-rmi4_smb-439863  [009] ..... 25000.752443: smbus_result: i2c-11 a=02c f=0000 c=2 BLOCK_DATA rd res=0
 irq/95-rmi4_smb-439863  [009] ..... 25000.755020: smbus_read: i2c-11 a=02c f=0040 c=6 BLOCK_DATA
 irq/95-rmi4_smb-439863  [009] ..... 25000.756307: smbus_reply: i2c-11 a=02c f=0000 c=6 BLOCK_DATA l=3 [02-18-00]
 irq/95-rmi4_smb-439863  [009] ..... 25000.756308: smbus_result: i2c-11 a=02c f=0000 c=6 BLOCK_DATA rd res=0
 irq/95-rmi4_smb-439863  [009] ..... 25000.756312: smbus_read: i2c-11 a=02c f=0040 c=0 BLOCK_DATA
 irq/95-rmi4_smb-439863  [009] ..... 25000.760501: smbus_reply: i2c-11 a=02c f=0000 c=0 BLOCK_DATA l=33 [20-01-6a-04-84-02-15-04-04-00-00-00-00-00-00-00-00-00-00-00-00-00-00-00-00-00-00-00-00-00-00-00-00]
 irq/95-rmi4_smb-439863  [009] ..... 25000.760503: smbus_result: i2c-11 a=02c f=0000 c=0 BLOCK_DATA rd res=0
 irq/95-rmi4_smb-439863  [009] ..... 25000.760504: smbus_read: i2c-11 a=02c f=0040 c=1 BLOCK_DATA
 irq/95-rmi4_smb-439863  [009] ..... 25000.764515: smbus_reply: i2c-11 a=02c f=0000 c=1 BLOCK_DATA l=33 [20-04-10-00-80-00-7a-15-06-00-81-02-fe-01-00-00-01-e0-01-04-00-00-00-00-00-00-c4-54-4d-33-34-37-31]
 irq/95-rmi4_smb-439863  [009] ..... 25000.764518: smbus_result: i2c-11 a=02c f=0000 c=1 BLOCK_DATA rd res=0
 irq/95-rmi4_smb-439863  [009] ..... 25000.764521: smbus_read: i2c-11 a=02c f=0040 c=2 BLOCK_DATA
 irq/95-rmi4_smb-439863  [009] ..... 25000.766901: smbus_reply: i2c-11 a=02c f=0000 c=2 BLOCK_DATA l=16 [0f-44-57-20-52-35-2e-30-2e-30-00-00-00-00-00-00]
 irq/95-rmi4_smb-439863  [009] ..... 25000.766902: smbus_result: i2c-11 a=02c f=0000 c=2 BLOCK_DATA rd res=0
 irq/95-rmi4_smb-439863  [009] ..... 25000.772794: smbus_read: i2c-11 a=02c f=0040 c=6 BLOCK_DATA
 irq/95-rmi4_smb-439863  [009] ..... 25000.773928: smbus_reply: i2c-11 a=02c f=0000 c=6 BLOCK_DATA l=3 [02-18-00]
 irq/95-rmi4_smb-439863  [009] ..... 25000.773929: smbus_result: i2c-11 a=02c f=0000 c=6 BLOCK_DATA rd res=0
 irq/95-rmi4_smb-439863  [009] ..... 25000.773933: smbus_read: i2c-11 a=02c f=0040 c=0 BLOCK_DATA
 irq/95-rmi4_smb-439863  [009] ..... 25000.777958: smbus_reply: i2c-11 a=02c f=0000 c=0 BLOCK_DATA l=33 [20-00-00-00-00-00-00-00-00-00-00-00-00-00-00-00-00-00-00-00-00-00-00-00-00-00-00-00-00-00-00-00-00]
 irq/95-rmi4_smb-439863  [009] ..... 25000.777959: smbus_result: i2c-11 a=02c f=0000 c=0 BLOCK_DATA rd res=0
 irq/95-rmi4_smb-439863  [009] ..... 25000.777961: smbus_read: i2c-11 a=02c f=0040 c=1 BLOCK_DATA
 irq/95-rmi4_smb-439863  [009] ..... 25000.781855: smbus_reply: i2c-11 a=02c f=0000 c=1 BLOCK_DATA l=33 [20-04-10-00-80-00-7a-15-06-00-81-02-fe-01-00-00-01-e0-01-04-00-00-00-00-00-00-c4-54-4d-33-34-37-31]
 irq/95-rmi4_smb-439863  [009] ..... 25000.781857: smbus_result: i2c-11 a=02c f=0000 c=1 BLOCK_DATA rd res=0
 irq/95-rmi4_smb-439863  [009] ..... 25000.781861: smbus_read: i2c-11 a=02c f=0040 c=2 BLOCK_DATA
 irq/95-rmi4_smb-439863  [009] ..... 25000.784243: smbus_reply: i2c-11 a=02c f=0000 c=2 BLOCK_DATA l=16 [0f-44-57-20-52-35-2e-30-2e-30-00-00-00-00-00-00]
 irq/95-rmi4_smb-439863  [009] ..... 25000.784245: smbus_result: i2c-11 a=02c f=0000 c=2 BLOCK_DATA rd res=0
 irq/95-rmi4_smb-439863  [009] ..... 25001.926307: smbus_read: i2c-11 a=02c f=0040 c=6 BLOCK_DATA
