# tracer: nop
#
# entries-in-buffer/entries-written: 13608/13608   #P:16
#
#                                _-----=> irqs-off/BH-disabled
#                               / _----=> need-resched
#                              | / _---=> hardirq/softirq
#                              || / _--=> preempt-depth
#                              ||| / _-=> migrate-disable
#                              |||| /     delay
#           TASK-PID     CPU#  |||||  TIMESTAMP  FUNCTION
#              | |         |   |||||     |         |
 irq/95-rmi4_smb-439863  [015] ..... 25140.132730: smbus_reply: i2c-11 a=02c f=0000 c=2 BLOCK_DATA l=16 [0f-44-57-20-52-35-2e-30-2e-30-00-00-00-00-00-00]
 irq/95-rmi4_smb-439863  [015] ..... 25140.132731: smbus_result: i2c-11 a=02c f=0000 c=2 BLOCK_DATA rd res=0
 irq/95-rmi4_smb-439863  [015] ..... 25140.135843: smbus_read: i2c-11 a=02c f=0040 c=6 BLOCK_DATA
 irq/95-rmi4_smb-439863  [015] ..... 25140.137062: smbus_reply: i2c-11 a=02c f=0000 c=6 BLOCK_DATA l=3 [02-18-00]
 irq/95-rmi4_smb-439863  [015] ..... 25140.137063: smbus_result: i2c-11 a=02c f=0000 c=6 BLOCK_DATA rd res=0
 irq/95-rmi4_smb-439863  [015] ..... 25140.137065: smbus_read: i2c-11 a=02c f=0040 c=0 BLOCK_DATA
 irq/95-rmi4_smb-439863  [015] ..... 25140.141248: smbus_reply: i2c-11 a=02c f=0000 c=0 BLOCK_DATA l=33 [20-01-23-01-e1-00-49-05-05-00-00-00-00-00-00-00-00-00-00-00-00-00-00-00-00-00-00-00-00-00-00-00-00]
 irq/95-rmi4_smb-439863  [015] ..... 25140.141248: smbus_result: i2c-11 a=02c f=0000 c=0 BLOCK_DATA rd res=0
 irq/95-rmi4_smb-439863  [015] ..... 25140.141249: smbus_read: i2c-11 a=02c f=0040 c=1 BLOCK_DATA
 irq/95-rmi4_smb-439863  [015] ..... 25140.145163: smbus_reply: i2c-11 a=02c f=0000 c=1 BLOCK_DATA l=33 [20-04-10-00-80-00-7a-15-06-00-81-02-fe-01-00-00-01-e0-01-04-00-00-00-00-00-00-c4-54-4d-33-34-37-31]
 irq/95-rmi4_smb-439863  [015] ..... 25140.145165: smbus_result: i2c-11 a=02c f=0000 c=1 BLOCK_DATA rd res=0
 irq/95-rmi4_smb-439863  [015] ..... 25140.145166: smbus_read: i2c-11 a=02c f=0040 c=2 BLOCK_DATA
 irq/95-rmi4_smb-439863  [015] ..... 25140.147673: smbus_reply: i2c-11 a=02c f=0000 c=2 BLOCK_DATA l=16 [0f-44-57-20-52-35-2e-30-2e-30-00-00-00-00-00-00]
 irq/95-rmi4_smb-439863  [015] ..... 25140.147674: smbus_result: i2c-11 a=02c f=0000 c=2 BLOCK_DATA rd res=0
 irq/95-rmi4_smb-439863  [015] ..... 25140.150697: smbus_read: i2c-11 a=02c f=0040 c=6 BLOCK_DATA
 irq/95-rmi4_smb-439863  [015] ..... 25140.151934: smbus_reply: i2c-11 a=02c f=0000 c=6 BLOCK_DATA l=3 [02-18-00]
 irq/95-rmi4_smb-439863  [015] ..... 25140.151936: smbus_result: i2c-11 a=02c f=0000 c=6 BLOCK_DATA rd res=0
 irq/95-rmi4_smb-439863  [015] ..... 25140.151942: smbus_read: i2c-11 a=02c f=0040 c=0 BLOCK_DATA
 irq/95-rmi4_smb-439863  [015] ..... 25140.156254: smbus_reply: i2c-11 a=02c f=0000 c=0 BLOCK_DATA l=33 [20-01-23-01-e1-00-49-05-05-00-00-00-00-00-00-00-00-00-00-00-00-00-00-00-00-00-00-00-00-00-00-00-00]
 irq/95-rmi4_smb-439863  [015] ..... 25140.156256: smbus_result: i2c-11 a=02c f=0000 c=0 BLOCK_DATA rd res=0
 irq/95-rmi4_smb-439863  [015] ..... 25140.156259: smbus_read: i2c-11 a=02c f=0040 c=1 BLOCK_DATA
 irq/95-rmi4_smb-439863  [015] ..... 25140.160181: smbus_reply: i2c-11 a=02c f=0000 c=1 BLOCK_DATA l=33 [20-04-10-00-80-00-7a-15-06-00-81-02-fe-01-00-00-01-e0-01-04-00-00-00-00-00-00-c4-54-4d-33-34-37-31]
 irq/95-rmi4_smb-439863  [015] ..... 25140.160183: smbus_result: i2c-11 a=02c f=0000 c=1 BLOCK_DATA rd res=0
 irq/95-rmi4_smb-439863  [015] ..... 25140.160185: smbus_read: i2c-11 a=02c f=0040 c=2 BLOCK_DATA
 irq/95-rmi4_smb-439863  [015] ..... 25140.162680: smbus_reply: i2c-11 a=02c f=0000 c=2 BLOCK_DATA l=16 [0f-44-57-20-52-35-2e-30-2e-30-00-00-00-00-00-00]
 irq/95-rmi4_smb-439863  [015] ..... 25140.162682: smbus_result: i2c-11 a=02c f=0000 c=2 BLOCK_DATA rd res=0
 irq/95-rmi4_smb-439863  [015] ..... 25140.165555: smbus_read: i2c-11 a=02c f=0040 c=6 BLOCK_DATA
 irq/95-rmi4_smb-439863  [015] ..... 25140.166644: smbus_reply: i2c-11 a=02c f=0000 c=6 BLOCK_DATA l=3 [02-18-00]
 irq/95-rmi4_smb-439863  [015] ..... 25140.166647: smbus_result: i2c-11 a=02c f=0000 c=6 BLOCK_DATA rd res=0
 irq/95-rmi4_smb-439863  [015] ..... 25140.166655: smbus_read: i2c-11 a=02c f=0040 c=0 BLOCK_DATA
 irq/95-rmi4_smb-439863  [015] ..... 25140.170769: smbus_reply: i2c-11 a=02c f=0000 c=0 BLOCK_DATA l=33 [20-01-24-01-e0-00-49-05-05-00-00-00-00-00-00-00-00-00-00-00-00-00-00-00-00-00-00-00-00-00-00-00-00]
 irq/95-rmi4_smb-439863  [015] ..... 25140.170771: smbus_result: i2c-11 a=02c f=0000 c=0 BLOCK_DATA rd res=0
 irq/95-rmi4_smb-439863  [015] ..... 25140.170774: smbus_read: i2c-11 a=02c f=0040 c=1 BLOCK_DATA
 irq/95-rmi4_smb-439863  [015] ..... 25140.174698: smbus_reply: i2c-11 a=02c f=0000 c=1 BLOCK_DATA l=33 [20-04-10-00-80-00-7a-15-06-00-81-02-fe-01-00-00-01-e0-01-04-00-00-00-00-00-00-c4-54-4d-33-34-37-31]
 irq/95-rmi4_smb-439863  [015] ..... 25140.174700: smbus_result: i2c-11 a=02c f=0000 c=1 BLOCK_DATA rd res=0
 irq/95-rmi4_smb-439863  [015] ..... 25140.174703: smbus_read: i2c-11 a=02c f=0040 c=2 BLOCK_DATA
 irq/95-rmi4_smb-439863  [015] ..... 25140.176986: smbus_reply: i2c-11 a=02c f=0000 c=2 BLOCK_DATA l=16 [0f-44-57-20-52-35-2e-30-2e-30-00-00-00-00-00-00]
 irq/95-rmi4_smb-439863  [015] ..... 25140.176987: smbus_result: i2c-11 a=02c f=0000 c=2 BLOCK_DATA rd res=0
 irq/95-rmi4_smb-439863  [015] ..... 25140.180373: smbus_read: i2c-11 a=02c f=0040 c=6 BLOCK_DATA
 irq/95-rmi4_smb-439863  [015] ..... 25140.181617: smbus_reply: i2c-11 a=02c f=0000 c=6 BLOCK_DATA l=3 [02-18-00]
 irq/95-rmi4_smb-439863  [015] ..... 25140.181619: smbus_result: i2c-11 a=02c f=0000 c=6 BLOCK_DATA rd res=0
 irq/95-rmi4_smb-439863  [015] ..... 25140.181626: smbus_read: i2c-11 a=02c f=0040 c=0 BLOCK_DATA
 irq/95-rmi4_smb-439863  [015] ..... 25140.185737: smbus_reply: i2c-11 a=02c f=0000 c=0 BLOCK_DATA l=33 [20-01-24-01-e0-00-49-05-05-00-00-00-00-00-00-00-00-00-00-00-00-00-00-00-00-00-00-00-00-00-00-00-00]
 irq/95-rmi4_smb-439863  [015] ..... 25140.185739: smbus_result: i2c-11 a=02c f=0000 c=0 BLOCK_DATA rd res=0
 irq/95-rmi4_smb-439863  [015] ..... 25140.185743: smbus_read: i2c-11 a=02c f=0040 c=1 BLOCK_DATA
 irq/95-rmi4_smb-439863  [015] ..... 25140.189741: smbus_reply: i2c-11 a=02c f=0000 c=1 BLOCK_DATA l=33 [20-04-10-00-80-00-7a-15-06-00-81-02-fe-01-00-00-01-e0-01-04-00-00-00-00-00-00-c4-54-4d-33-34-37-31]
 irq/95-rmi4_smb-439863  [015] ..... 25140.189743: smbus_result: i2c-11 a=02c f=0000 c=1 BLOCK_DATA rd res=0
 irq/95-rmi4_smb-439863  [015] ..... 25140.189745: smbus_read: i2c-11 a=02c f=0040 c=2 BLOCK_DATA
 irq/95-rmi4_smb-439863  [015] ..... 25140.192028: smbus_reply: i2c-11 a=02c f=0000 c=2 BLOCK_DATA l=16 [0f-44-57-20-52-35-2e-30-2e-30-00-00-00-00-00-00]
 irq/95-rmi4_smb-439863  [015] ..... 25140.192030: smbus_result: i2c-11 a=02c f=0000 c=2 BLOCK_DATA rd res=0
 irq/95-rmi4_smb-439863  [015] ..... 25140.195224: smbus_read: i2c-11 a=02c f=0040 c=6 BLOCK_DATA
 irq/95-rmi4_smb-439863  [015] ..... 25140.196446: smbus_reply: i2c-11 a=02c f=0000 c=6 BLOCK_DATA l=3 [02-18-00]
 irq/95-rmi4_smb-439863  [015] ..... 25140.196447: smbus_result: i2c-11 a=02c f=0000 c=6 BLOCK_DATA rd res=0
 irq/95-rmi4_smb-439863  [015] ..... 25140.196450: smbus_read: i2c-11 a=02c f=0040 c=0 BLOCK_DATA
 irq/95-rmi4_smb-439863  [015] ..... 25140.200278: smbus_reply: i2c-11 a=02c f=0000 c=0 BLOCK_DATA l=33 [20-01-25-01-e0-00-49-05-05-00-00-00-00-00-00-00-00-00-00-00-00-00-00-00-00-00-00-00-00-00-00-00-00]
 irq/95-rmi4_smb-439863  [015] ..... 25140.200280: smbus_result: i2c-11 a=02c f=0000 c=0 BLOCK_DATA rd res=0
 irq/95-rmi4_smb-439863  [015] ..... 25140.200283: smbus_read: i2c-11 a=02c f=0040 c=1 BLOCK_DATA
 irq/95-rmi4_smb-439863  [015] ..... 25140.204183: smbus_reply: i2c-11 a=02c f=0000 c=1 BLOCK_DATA l=33 [20-04-10-00-80-00-7a-15-06-00-81-02-fe-01-00-00-01-e0-01-04-00-00-00-00-00-00-c4-54-4d-33-34-37-31]
 irq/95-rmi4_smb-439863  [015] ..... 25140.204185: smbus_result: i2c-11 a=02c f=0000 c=1 BLOCK_DATA rd res=0
 irq/95-rmi4_smb-439863  [015] ..... 25140.204188: smbus_read: i2c-11 a=02c f=0040 c=2 BLOCK_DATA
 irq/95-rmi4_smb-439863  [015] ..... 25140.206689: smbus_reply: i2c-11 a=02c f=0000 c=2 BLOCK_DATA l=16 [0f-44-57-20-52-35-2e-30-2e-30-00-00-00-00-00-00]
 irq/95-rmi4_smb-439863  [015] ..... 25140.206690: smbus_result: i2c-11 a=02c f=0000 c=2 BLOCK_DATA rd res=0
 irq/95-rmi4_smb-439863  [015] ..... 25140.210051: smbus_read: i2c-11 a=02c f=0040 c=6 BLOCK_DATA
 irq/95-rmi4_smb-439863  [015] ..... 25140.211163: smbus_reply: i2c-11 a=02c f=0000 c=6 BLOCK_DATA l=3 [02-18-00]
 irq/95-rmi4_smb-439863  [015] ..... 25140.211165: smbus_result: i2c-11 a=02c f=0000 c=6 BLOCK_DATA rd res=0
 irq/95-rmi4_smb-439863  [015] ..... 25140.211169: smbus_read: i2c-11 a=02c f=0040 c=0 BLOCK_DATA
 irq/95-rmi4_smb-439863  [015] ..... 25140.215261: smbus_reply: i2c-11 a=02c f=0000 c=0 BLOCK_DATA l=33 [20-01-25-01-e0-00-49-05-05-00-00-00-00-00-00-00-00-00-00-00-00-00-00-00-00-00-00-00-00-00-00-00-00]
 irq/95-rmi4_smb-439863  [015] ..... 25140.215263: smbus_result: i2c-11 a=02c f=0000 c=0 BLOCK_DATA rd res=0
 irq/95-rmi4_smb-439863  [015] ..... 25140.215267: smbus_read: i2c-11 a=02c f=0040 c=1 BLOCK_DATA
 irq/95-rmi4_smb-439863  [015] ..... 25140.219149: smbus_reply: i2c-11 a=02c f=0000 c=1 BLOCK_DATA l=33 [20-04-10-00-80-00-7a-15-06-00-81-02-fe-01-00-00-01-e0-01-04-00-00-00-00-00-00-c4-54-4d-33-34-37-31]
 irq/95-rmi4_smb-439863  [015] ..... 25140.219151: smbus_result: i2c-11 a=02c f=0000 c=1 BLOCK_DATA rd res=0
 irq/95-rmi4_smb-439863  [015] ..... 25140.219153: smbus_read: i2c-11 a=02c f=0040 c=2 BLOCK_DATA
 irq/95-rmi4_smb-439863  [015] ..... 25140.221689: smbus_reply: i2c-11 a=02c f=0000 c=2 BLOCK_DATA l=16 [0f-44-57-20-52-35-2e-30-2e-30-00-00-00-00-00-00]
 irq/95-rmi4_smb-439863  [015] ..... 25140.221691: smbus_result: i2c-11 a=02c f=0000 c=2 BLOCK_DATA rd res=0
 irq/95-rmi4_smb-439863  [015] ..... 25140.224869: smbus_read: i2c-11 a=02c f=0040 c=6 BLOCK_DATA
 irq/95-rmi4_smb-439863  [015] ..... 25140.226071: smbus_reply: i2c-11 a=02c f=0000 c=6 BLOCK_DATA l=3 [02-18-00]
 irq/95-rmi4_smb-439863  [015] ..... 25140.226072: smbus_result: i2c-11 a=02c f=0000 c=6 BLOCK_DATA rd res=0
 irq/95-rmi4_smb-439863  [015] ..... 25140.226076: smbus_read: i2c-11 a=02c f=0040 c=0 BLOCK_DATA
 irq/95-rmi4_smb-439863  [015] ..... 25140.230244: smbus_reply: i2c-11 a=02c f=0000 c=0 BLOCK_DATA l=33 [20-01-25-01-e0-00-49-05-05-00-00-00-00-00-00-00-00-00-00-00-00-00-00-00-00-00-00-00-00-00-00-00-00]
 irq/95-rmi4_smb-439863  [015] ..... 25140.230247: smbus_result: i2c-11 a=02c f=0000 c=0 BLOCK_DATA rd res=0
 irq/95-rmi4_smb-439863  [015] ..... 25140.230251: smbus_read: i2c-11 a=02c f=0040 c=1 BLOCK_DATA
 irq/95-rmi4_smb-439863  [015] ..... 25140.234124: smbus_reply: i2c-11 a=02c f=0000 c=1 BLOCK_DATA l=33 [20-04-10-00-80-00-7a-15-06-00-81-02-fe-01-00-00-01-e0-01-04-00-00-00-00-00-00-c4-54-4d-33-34-37-31]
 irq/95-rmi4_smb-439863  [015] ..... 25140.234126: smbus_result: i2c-11 a=02c f=0000 c=1 BLOCK_DATA rd res=0
 irq/95-rmi4_smb-439863  [015] ..... 25140.234129: smbus_read: i2c-11 a=02c f=0040 c=2 BLOCK_DATA
 irq/95-rmi4_smb-439863  [015] ..... 25140.236688: smbus_reply: i2c-11 a=02c f=0000 c=2 BLOCK_DATA l=16 [0f-44-57-20-52-35-2e-30-2e-30-00-00-00-00-00-00]
 irq/95-rmi4_smb-439863  [015] ..... 25140.236689: smbus_result: i2c-11 a=02c f=0000 c=2 BLOCK_DATA rd res=0
 irq/95-rmi4_smb-439863  [015] ..... 25140.239717: smbus_read: i2c-11 a=02c f=0040 c=6 BLOCK_DATA
 irq/95-rmi4_smb-439863  [015] ..... 25140.240937: smbus_reply: i2c-11 a=02c f=0000 c=6 BLOCK_DATA l=3 [02-18-00]
 irq/95-rmi4_smb-439863  [015] ..... 25140.240939: smbus_result: i2c-11 a=02c f=0000 c=6 BLOCK_DATA rd res=0
 irq/95-rmi4_smb-439863  [015] ..... 25140.240943: smbus_read: i2c-11 a=02c f=0040 c=0 BLOCK_DATA
 irq/95-rmi4_smb-439863  [015] ..... 25140.244746: smbus_reply: i2c-11 a=02c f=0000 c=0 BLOCK_DATA l=33 [20-01-25-01-e0-00-48-05-05-00-00-00-00-00-00-00-00-00-00-00-00-00-00-00-00-00-00-00-00-00-00-00-00]
 irq/95-rmi4_smb-439863  [015] ..... 25140.244748: smbus_result: i2c-11 a=02c f=0000 c=0 BLOCK_DATA rd res=0
 irq/95-rmi4_smb-439863  [015] ..... 25140.244751: smbus_read: i2c-11 a=02c f=0040 c=1 BLOCK_DATA
 irq/95-rmi4_smb-439863  [015] ..... 25140.248647: smbus_reply: i2c-11 a=02c f=0000 c=1 BLOCK_DATA l=33 [20-04-10-00-80-00-7a-15-06-00-81-02-fe-01-00-00-01-e0-01-04-00-00-00-00-00-00-c4-54-4d-33-34-37-31]
 irq/95-rmi4_smb-439863  [015] ..... 25140.248650: smbus_result: i2c-11 a=02c f=0000 c=1 BLOCK_DATA rd res=0
 irq/95-rmi4_smb-439863  [015] ..... 25140.248653: smbus_read: i2c-11 a=02c f=0040 c=2 BLOCK_DATA
 irq/95-rmi4_smb-439863  [015] ..... 25140.251202: smbus_reply: i2c-11 a=02c f=0000 c=2 BLOCK_DATA l=16 [0f-44-57-20-52-35-2e-30-2e-30-00-00-00-00-00-00]
 irq/95-rmi4_smb-439863  [015] ..... 25140.251204: smbus_result: i2c-11 a=02c f=0000 c=2 BLOCK_DATA rd res=0
 irq/95-rmi4_smb-439863  [015] ..... 25140.254553: smbus_read: i2c-11 a=02c f=0040 c=6 BLOCK_DATA
 irq/95-rmi4_smb-439863  [015] ..... 25140.255646: smbus_reply: i2c-11 a=02c f=0000 c=6 BLOCK_DATA l=3 [02-18-00]
 irq/95-rmi4_smb-439863  [015] ..... 25140.255647: smbus_result: i2c-11 a=02c f=0000 c=6 BLOCK_DATA rd res=0
 irq/95-rmi4_smb-439863  [015] ..... 25140.255652: smbus_read: i2c-11 a=02c f=0040 c=0 BLOCK_DATA
 irq/95-rmi4_smb-439863  [015] ..... 25140.259748: smbus_reply: i2c-11 a=02c f=0000 c=0 BLOCK_DATA l=33 [20-01-26-01-e0-00-46-05-05-00-00-00-00-00-00-00-00-00-00-00-00-00-00-00-00-00-00-00-00-00-00-00-00]
 irq/95-rmi4_smb-439863  [015] ..... 25140.259749: smbus_result: i2c-11 a=02c f=0000 c=0 BLOCK_DATA rd res=0
 irq/95-rmi4_smb-439863  [015] ..... 25140.259752: smbus_read: i2c-11 a=02c f=0040 c=1 BLOCK_DATA
 irq/95-rmi4_smb-439863  [015] ..... 25140.263649: smbus_reply: i2c-11 a=02c f=0000 c=1 BLOCK_DATA l=33 [20-04-10-00-80-00-7a-15-06-00-81-02-fe-01-00-00-01-e0-01-04-00-00-00-00-00-00-c4-54-4d-33-34-37-31]
 irq/95-rmi4_smb-439863  [015] ..... 25140.263651: smbus_result: i2c-11 a=02c f=0000 c=1 BLOCK_DATA rd res=0
 irq/95-rmi4_smb-439863  [015] ..... 25140.263654: smbus_read: i2c-11 a=02c f=0040 c=2 BLOCK_DATA
 irq/95-rmi4_smb-439863  [015] ..... 25140.266215: smbus_reply: i2c-11 a=02c f=0000 c=2 BLOCK_DATA l=16 [0f-44-57-20-52-35-2e-30-2e-30-00-00-00-00-00-00]
 irq/95-rmi4_smb-439863  [015] ..... 25140.266217: smbus_result: i2c-11 a=02c f=0000 c=2 BLOCK_DATA rd res=0
 irq/95-rmi4_smb-439863  [015] ..... 25140.269334: smbus_read: i2c-11 a=02c f=0040 c=6 BLOCK_DATA
 irq/95-rmi4_smb-439863  [015] ..... 25140.270565: smbus_reply: i2c-11 a=02c f=0000 c=6 BLOCK_DATA l=3 [02-18-00]
 irq/95-rmi4_smb-439863  [015] ..... 25140.270567: smbus_result: i2c-11 a=02c f=0000 c=6 BLOCK_DATA rd res=0
 irq/95-rmi4_smb-439863  [015] ..... 25140.270573: smbus_read: i2c-11 a=02c f=0040 c=0 BLOCK_DATA
 irq/95-rmi4_smb-439863  [015] ..... 25140.274745: smbus_reply: i2c-11 a=02c f=0000 c=0 BLOCK_DATA l=33 [20-01-26-01-e0-00-3e-04-04-00-00-00-00-00-00-00-00-00-00-00-00-00-00-00-00-00-00-00-00-00-00-00-00]
 irq/95-rmi4_smb-439863  [015] ..... 25140.274747: smbus_result: i2c-11 a=02c f=0000 c=0 BLOCK_DATA rd res=0
 irq/95-rmi4_smb-439863  [015] ..... 25140.274749: smbus_read: i2c-11 a=02c f=0040 c=1 BLOCK_DATA
 irq/95-rmi4_smb-439863  [015] ..... 25140.278658: smbus_reply: i2c-11 a=02c f=0000 c=1 BLOCK_DATA l=33 [20-04-10-00-80-00-7a-15-06-00-81-02-fe-01-00-00-01-e0-01-04-00-00-00-00-00-00-c4-54-4d-33-34-37-31]
 irq/95-rmi4_smb-439863  [015] ..... 25140.278660: smbus_result: i2c-11 a=02c f=0000 c=1 BLOCK_DATA rd res=0
 irq/95-rmi4_smb-439863  [015] ..... 25140.278662: smbus_read: i2c-11 a=02c f=0040 c=2 BLOCK_DATA
 irq/95-rmi4_smb-439863  [015] ..... 25140.281207: smbus_reply: i2c-11 a=02c f=0000 c=2 BLOCK_DATA l=16 [0f-44-57-20-52-35-2e-30-2e-30-00-00-00-00-00-00]
 irq/95-rmi4_smb-439863  [015] ..... 25140.281209: smbus_result: i2c-11 a=02c f=0000 c=2 BLOCK_DATA rd res=0
 irq/95-rmi4_smb-439863  [015] ..... 25140.283945: smbus_read: i2c-11 a=02c f=0040 c=6 BLOCK_DATA
 irq/95-rmi4_smb-439863  [015] ..... 25140.285187: smbus_reply: i2c-11 a=02c f=0000 c=6 BLOCK_DATA l=3 [02-18-00]
 irq/95-rmi4_smb-439863  [015] ..... 25140.285188: smbus_result: i2c-11 a=02c f=0000 c=6 BLOCK_DATA rd res=0
 irq/95-rmi4_smb-439863  [015] ..... 25140.285193: smbus_read: i2c-11 a=02c f=0040 c=0 BLOCK_DATA
 irq/95-rmi4_smb-439863  [015] ..... 25140.289089: smbus_reply: i2c-11 a=02c f=0000 c=0 BLOCK_DATA l=33 [20-01-26-01-e0-00-25-01-02-00-00-00-00-00-00-00-00-00-00-00-00-00-00-00-00-00-00-00-00-00-00-00-00]
 irq/95-rmi4_smb-439863  [015] ..... 25140.289091: smbus_result: i2c-11 a=02c f=0000 c=0 BLOCK_DATA rd res=0
 irq/95-rmi4_smb-439863  [015] ..... 25140.289094: smbus_read: i2c-11 a=02c f=0040 c=1 BLOCK_DATA
 irq/95-rmi4_smb-439863  [015] ..... 25140.293085: smbus_reply: i2c-11 a=02c f=0000 c=1 BLOCK_DATA l=33 [20-04-10-00-80-00-7a-15-06-00-81-02-fe-01-00-00-01-e0-01-04-00-00-00-00-00-00-c4-54-4d-33-34-37-31]
 irq/95-rmi4_smb-439863  [015] ..... 25140.293088: smbus_result: i2c-11 a=02c f=0000 c=1 BLOCK_DATA rd res=0
 irq/95-rmi4_smb-439863  [015] ..... 25140.293091: smbus_read: i2c-11 a=02c f=0040 c=2 BLOCK_DATA
 irq/95-rmi4_smb-439863  [015] ..... 25140.295701: smbus_reply: i2c-11 a=02c f=0000 c=2 BLOCK_DATA l=16 [0f-44-57-20-52-35-2e-30-2e-30-00-00-00-00-00-00]
 irq/95-rmi4_smb-439863  [015] ..... 25140.295703: smbus_result: i2c-11 a=02c f=0000 c=2 BLOCK_DATA rd res=0
 irq/95-rmi4_smb-439863  [015] ..... 25140.301327: smbus_read: i2c-11 a=02c f=0040 c=6 BLOCK_DATA
 irq/95-rmi4_smb-439863  [015] ..... 25140.302586: smbus_reply: i2c-11 a=02c f=0000 c=6 BLOCK_DATA l=3 [02-18-00]
 irq/95-rmi4_smb-439863  [015] ..... 25140.302587: smbus_result: i2c-11 a=02c f=0000 c=6 BLOCK_DATA rd res=0
 irq/95-rmi4_smb-439863  [015] ..... 25140.302591: smbus_read: i2c-11 a=02c f=0040 c=0 BLOCK_DATA
 irq/95-rmi4_smb-439863  [015] ..... 25140.306771: smbus_reply: i2c-11 a=02c f=0000 c=0 BLOCK_DATA l=33 [20-00-00-00-00-00-00-00-00-00-00-00-00-00-00-00-00-00-00-00-00-00-00-00-00-00-00-00-00-00-00-00-00]
 irq/95-rmi4_smb-439863  [015] ..... 25140.306776: smbus_result: i2c-11 a=02c f=0000 c=0 BLOCK_DATA rd res=0
 irq/95-rmi4_smb-439863  [015] ..... 25140.306780: smbus_read: i2c-11 a=02c f=0040 c=1 BLOCK_DATA
 irq/95-rmi4_smb-439863  [015] ..... 25140.310722: smbus_reply: i2c-11 a=02c f=0000 c=1 BLOCK_DATA l=33 [20-04-10-00-80-00-7a-15-06-00-81-02-fe-01-00-00-01-e0-01-04-00-00-00-00-00-00-c4-54-4d-33-34-37-31]
 irq/95-rmi4_smb-439863  [015] ..... 25140.310724: smbus_result: i2c-11 a=02c f=0000 c=1 BLOCK_DATA rd res=0
 irq/95-rmi4_smb-439863  [015] ..... 25140.310728: smbus_read: i2c-11 a=02c f=0040 c=2 BLOCK_DATA
 irq/95-rmi4_smb-439863  [015] ..... 25140.313030: smbus_reply: i2c-11 a=02c f=0000 c=2 BLOCK_DATA l=16 [0f-44-57-20-52-35-2e-30-2e-30-00-00-00-00-00-00]
 irq/95-rmi4_smb-439863  [015] ..... 25140.313031: smbus_result: i2c-11 a=02c f=0000 c=2 BLOCK_DATA rd res=0
 irq/95-rmi4_smb-439863  [015] ..... 25140.363025: smbus_read: i2c-11 a=02c f=0040 c=6 BLOCK_DATA
 irq/95-rmi4_smb-439863  [015] ..... 25140.364176: smbus_reply: i2c-11 a=02c f=0000 c=6 BLOCK_DATA l=3 [02-80-00]
 irq/95-rmi4_smb-439863  [015] ..... 25140.364177: smbus_result: i2c-11 a=02c f=0000 c=6 BLOCK_DATA rd res=0
 irq/95-rmi4_smb-439863  [015] ..... 25140.364180: smbus_read: i2c-11 a=02c f=0040 c=7 BLOCK_DATA
 irq/95-rmi4_smb-439863  [015] ..... 25140.366693: smbus_reply: i2c-11 a=02c f=0000 c=7 BLOCK_DATA l=15 [0e-01-09-01-00-01-00-00-00-00-00-00-00-00-00]
 irq/95-rmi4_smb-439863  [015] ..... 25140.366694: smbus_result: i2c-11 a=02c f=0000 c=7 BLOCK_DATA rd res=0
 irq/95-rmi4_smb-439863  [015] ..... 25140.434363: smbus_read: i2c-11 a=02c f=0040 c=6 BLOCK_DATA
 irq/95-rmi4_smb-439863  [015] ..... 25140.435612: smbus_reply: i2c-11 a=02c f=0000 c=6 BLOCK_DATA l=3 [02-80-00]
 irq/95-rmi4_smb-439863  [015] ..... 25140.435613: smbus_result: i2c-11 a=02c f=0000 c=6 BLOCK_DATA rd res=0
 irq/95-rmi4_smb-439863  [015] ..... 25140.435616: smbus_read: i2c-11 a=02c f=0040 c=7 BLOCK_DATA
 irq/95-rmi4_smb-439863  [015] ..... 25140.437691: smbus_reply: i2c-11 a=02c f=0000 c=7 BLOCK_DATA l=15 [0e-01-08-01-00-01-00-00-00-00-00-00-00-00-00]
 irq/95-rmi4_smb-439863  [015] ..... 25140.437692: smbus_result: i2c-11 a=02c f=0000 c=7 BLOCK_DATA rd res=0
   systemd-sleep-485341  [000] ..... 25140.888855: suspend_resume: suspend_enter[3] begin
   systemd-sleep-485341  [000] ..... 25140.888857: suspend_resume: sync_filesystems[0] begin
 irq/95-rmi4_smb-439863  [015] ..... 25141.125450: smbus_read: i2c-11 a=02c f=0040 c=6 BLOCK_DATA
 irq/95-rmi4_smb-439863  [015] ..... 25141.126651: smbus_reply: i2c-11 a=02c f=0000 c=6 BLOCK_DATA l=3 [02-18-00]
 irq/95-rmi4_smb-439863  [015] ..... 25141.126652: smbus_result: i2c-11 a=02c f=0000 c=6 BLOCK_DATA rd res=0
 irq/95-rmi4_smb-439863  [015] ..... 25141.126655: smbus_read: i2c-11 a=02c f=0040 c=0 BLOCK_DATA
 irq/95-rmi4_smb-439863  [015] ..... 25141.130736: smbus_reply: i2c-11 a=02c f=0000 c=0 BLOCK_DATA l=33 [20-01-74-01-e5-00-37-04-02-00-00-00-00-00-00-00-00-00-00-00-00-00-00-00-00-00-00-00-00-00-00-00-00]
 irq/95-rmi4_smb-439863  [015] ..... 25141.130736: smbus_result: i2c-11 a=02c f=0000 c=0 BLOCK_DATA rd res=0
 irq/95-rmi4_smb-439863  [015] ..... 25141.130737: smbus_read: i2c-11 a=02c f=0040 c=1 BLOCK_DATA
 irq/95-rmi4_smb-439863  [015] ..... 25141.134599: smbus_reply: i2c-11 a=02c f=0000 c=1 BLOCK_DATA l=33 [20-04-10-00-80-00-7a-15-06-00-81-02-fe-01-00-00-01-e0-01-04-00-00-00-00-00-00-c4-54-4d-33-34-37-31]
 irq/95-rmi4_smb-439863  [015] ..... 25141.134601: smbus_result: i2c-11 a=02c f=0000 c=1 BLOCK_DATA rd res=0
 irq/95-rmi4_smb-439863  [015] ..... 25141.134603: smbus_read: i2c-11 a=02c f=0040 c=2 BLOCK_DATA
 irq/95-rmi4_smb-439863  [015] ..... 25141.137187: smbus_reply: i2c-11 a=02c f=0000 c=2 BLOCK_DATA l=16 [0f-44-57-20-52-35-2e-30-2e-30-00-00-00-00-00-00]
 irq/95-rmi4_smb-439863  [015] ..... 25141.137187: smbus_result: i2c-11 a=02c f=0000 c=2 BLOCK_DATA rd res=0
 irq/95-rmi4_smb-439863  [015] ..... 25141.140227: smbus_read: i2c-11 a=02c f=0040 c=6 BLOCK_DATA
 irq/95-rmi4_smb-439863  [015] ..... 25141.141441: smbus_reply: i2c-11 a=02c f=0000 c=6 BLOCK_DATA l=3 [02-18-00]
 irq/95-rmi4_smb-439863  [015] ..... 25141.141442: smbus_result: i2c-11 a=02c f=0000 c=6 BLOCK_DATA rd res=0
 irq/95-rmi4_smb-439863  [015] ..... 25141.141444: smbus_read: i2c-11 a=02c f=0040 c=0 BLOCK_DATA
 irq/95-rmi4_smb-439863  [015] ..... 25141.145239: smbus_reply: i2c-11 a=02c f=0000 c=0 BLOCK_DATA l=33 [20-01-91-01-15-01-3b-03-04-00-00-00-00-00-00-00-00-00-00-00-00-00-00-00-00-00-00-00-00-00-00-00-00]
 irq/95-rmi4_smb-439863  [015] ..... 25141.145239: smbus_result: i2c-11 a=02c f=0000 c=0 BLOCK_DATA rd res=0
 irq/95-rmi4_smb-439863  [015] ..... 25141.145240: smbus_read: i2c-11 a=02c f=0040 c=1 BLOCK_DATA
 irq/95-rmi4_smb-439863  [015] ..... 25141.149232: smbus_reply: i2c-11 a=02c f=0000 c=1 BLOCK_DATA l=33 [20-04-10-00-80-00-7a-15-06-00-81-02-fe-01-00-00-01-e0-01-04-00-00-00-00-00-00-c4-54-4d-33-34-37-31]
 irq/95-rmi4_smb-439863  [015] ..... 25141.149232: smbus_result: i2c-11 a=02c f=0000 c=1 BLOCK_DATA rd res=0
 irq/95-rmi4_smb-439863  [015] ..... 25141.149233: smbus_read: i2c-11 a=02c f=0040 c=2 BLOCK_DATA
 irq/95-rmi4_smb-439863  [015] ..... 25141.151477: smbus_reply: i2c-11 a=02c f=0000 c=2 BLOCK_DATA l=16 [0f-44-57-20-52-35-2e-30-2e-30-00-00-00-00-00-00]
 irq/95-rmi4_smb-439863  [015] ..... 25141.151478: smbus_result: i2c-11 a=02c f=0000 c=2 BLOCK_DATA rd res=0
 irq/95-rmi4_smb-439863  [015] ..... 25141.155139: smbus_read: i2c-11 a=02c f=0040 c=6 BLOCK_DATA
 irq/95-rmi4_smb-439863  [015] ..... 25141.156141: smbus_reply: i2c-11 a=02c f=0000 c=6 BLOCK_DATA l=3 [02-18-00]
 irq/95-rmi4_smb-439863  [015] ..... 25141.156142: smbus_result: i2c-11 a=02c f=0000 c=6 BLOCK_DATA rd res=0
 irq/95-rmi4_smb-439863  [015] ..... 25141.156144: smbus_read: i2c-11 a=02c f=0040 c=0 BLOCK_DATA
 irq/95-rmi4_smb-439863  [015] ..... 25141.160230: smbus_reply: i2c-11 a=02c f=0000 c=0 BLOCK_DATA l=33 [20-01-a5-01-33-01-38-04-02-00-00-00-00-00-00-00-00-00-00-00-00-00-00-00-00-00-00-00-00-00-00-00-00]
 irq/95-rmi4_smb-439863  [015] ..... 25141.160230: smbus_result: i2c-11 a=02c f=0000 c=0 BLOCK_DATA rd res=0
 irq/95-rmi4_smb-439863  [015] ..... 25141.160231: smbus_read: i2c-11 a=02c f=0040 c=1 BLOCK_DATA
 irq/95-rmi4_smb-439863  [015] ..... 25141.164068: smbus_reply: i2c-11 a=02c f=0000 c=1 BLOCK_DATA l=33 [20-04-10-00-80-00-7a-15-06-00-81-02-fe-01-00-00-01-e0-01-04-00-00-00-00-00-00-c4-54-4d-33-34-37-31]
 irq/95-rmi4_smb-439863  [015] ..... 25141.164069: smbus_result: i2c-11 a=02c f=0000 c=1 BLOCK_DATA rd res=0
 irq/95-rmi4_smb-439863  [015] ..... 25141.164070: smbus_read: i2c-11 a=02c f=0040 c=2 BLOCK_DATA
 irq/95-rmi4_smb-439863  [015] ..... 25141.166688: smbus_reply: i2c-11 a=02c f=0000 c=2 BLOCK_DATA l=16 [0f-44-57-20-52-35-2e-30-2e-30-00-00-00-00-00-00]
 irq/95-rmi4_smb-439863  [015] ..... 25141.166691: smbus_result: i2c-11 a=02c f=0000 c=2 BLOCK_DATA rd res=0
 irq/95-rmi4_smb-439863  [015] ..... 25141.169990: smbus_read: i2c-11 a=02c f=0040 c=6 BLOCK_DATA
 irq/95-rmi4_smb-439863  [015] ..... 25141.171142: smbus_reply: i2c-11 a=02c f=0000 c=6 BLOCK_DATA l=3 [02-18-00]
 irq/95-rmi4_smb-439863  [015] ..... 25141.171143: smbus_result: i2c-11 a=02c f=0000 c=6 BLOCK_DATA rd res=0
 irq/95-rmi4_smb-439863  [015] ..... 25141.171147: smbus_read: i2c-11 a=02c f=0040 c=0 BLOCK_DATA
 irq/95-rmi4_smb-439863  [015] ..... 25141.175253: smbus_reply: i2c-11 a=02c f=0000 c=0 BLOCK_DATA l=33 [20-01-bc-01-56-01-3a-04-03-00-00-00-00-00-00-00-00-00-00-00-00-00-00-00-00-00-00-00-00-00-00-00-00]
 irq/95-rmi4_smb-439863  [015] ..... 25141.175255: smbus_result: i2c-11 a=02c f=0000 c=0 BLOCK_DATA rd res=0
 irq/95-rmi4_smb-439863  [015] ..... 25141.175257: smbus_read: i2c-11 a=02c f=0040 c=1 BLOCK_DATA
 irq/95-rmi4_smb-439863  [015] ..... 25141.179158: smbus_reply: i2c-11 a=02c f=0000 c=1 BLOCK_DATA l=33 [20-04-10-00-80-00-7a-15-06-00-81-02-fe-01-00-00-01-e0-01-04-00-00-00-00-00-00-c4-54-4d-33-34-37-31]
 irq/95-rmi4_smb-439863  [015] ..... 25141.179159: smbus_result: i2c-11 a=02c f=0000 c=1 BLOCK_DATA rd res=0
 irq/95-rmi4_smb-439863  [015] ..... 25141.179161: smbus_read: i2c-11 a=02c f=0040 c=2 BLOCK_DATA
 irq/95-rmi4_smb-439863  [015] ..... 25141.181676: smbus_reply: i2c-11 a=02c f=0000 c=2 BLOCK_DATA l=16 [0f-44-57-20-52-35-2e-30-2e-30-00-00-00-00-00-00]
 irq/95-rmi4_smb-439863  [015] ..... 25141.181676: smbus_result: i2c-11 a=02c f=0000 c=2 BLOCK_DATA rd res=0
 irq/95-rmi4_smb-439863  [015] ..... 25141.184798: smbus_read: i2c-11 a=02c f=0040 c=6 BLOCK_DATA
 irq/95-rmi4_smb-439863  [015] ..... 25141.185998: smbus_reply: i2c-11 a=02c f=0000 c=6 BLOCK_DATA l=3 [02-18-00]
 irq/95-rmi4_smb-439863  [015] ..... 25141.185999: smbus_result: i2c-11 a=02c f=0000 c=6 BLOCK_DATA rd res=0
 irq/95-rmi4_smb-439863  [015] ..... 25141.186003: smbus_read: i2c-11 a=02c f=0040 c=0 BLOCK_DATA
 irq/95-rmi4_smb-439863  [015] ..... 25141.190268: smbus_reply: i2c-11 a=02c f=0000 c=0 BLOCK_DATA l=33 [20-01-d2-01-7a-01-3a-03-04-00-00-00-00-00-00-00-00-00-00-00-00-00-00-00-00-00-00-00-00-00-00-00-00]
 irq/95-rmi4_smb-439863  [015] ..... 25141.190269: smbus_result: i2c-11 a=02c f=0000 c=0 BLOCK_DATA rd res=0
 irq/95-rmi4_smb-439863  [015] ..... 25141.190271: smbus_read: i2c-11 a=02c f=0040 c=1 BLOCK_DATA
 irq/95-rmi4_smb-439863  [015] ..... 25141.194130: smbus_reply: i2c-11 a=02c f=0000 c=1 BLOCK_DATA l=33 [20-04-10-00-80-00-7a-15-06-00-81-02-fe-01-00-00-01-e0-01-04-00-00-00-00-00-00-c4-54-4d-33-34-37-31]
 irq/95-rmi4_smb-439863  [015] ..... 25141.194131: smbus_result: i2c-11 a=02c f=0000 c=1 BLOCK_DATA rd res=0
 irq/95-rmi4_smb-439863  [015] ..... 25141.194133: smbus_read: i2c-11 a=02c f=0040 c=2 BLOCK_DATA
 irq/95-rmi4_smb-439863  [015] ..... 25141.196678: smbus_reply: i2c-11 a=02c f=0000 c=2 BLOCK_DATA l=16 [0f-44-57-20-52-35-2e-30-2e-30-00-00-00-00-00-00]
 irq/95-rmi4_smb-439863  [015] ..... 25141.196679: smbus_result: i2c-11 a=02c f=0000 c=2 BLOCK_DATA rd res=0
 irq/95-rmi4_smb-439863  [015] ..... 25141.199664: smbus_read: i2c-11 a=02c f=0040 c=6 BLOCK_DATA
 irq/95-rmi4_smb-439863  [015] ..... 25141.201180: smbus_reply: i2c-11 a=02c f=0000 c=6 BLOCK_DATA l=3 [02-18-00]
 irq/95-rmi4_smb-439863  [015] ..... 25141.201181: smbus_result: i2c-11 a=02c f=0000 c=6 BLOCK_DATA rd res=0
 irq/95-rmi4_smb-439863  [015] ..... 25141.201184: smbus_read: i2c-11 a=02c f=0040 c=0 BLOCK_DATA
 irq/95-rmi4_smb-439863  [015] ..... 25141.206124: smbus_reply: i2c-11 a=02c f=0000 c=0 BLOCK_DATA l=33 [20-01-e5-01-9e-01-39-03-02-00-00-00-00-00-00-00-00-00-00-00-00-00-00-00-00-00-00-00-00-00-00-00-00]
 irq/95-rmi4_smb-439863  [015] ..... 25141.206126: smbus_result: i2c-11 a=02c f=0000 c=0 BLOCK_DATA rd res=0
 irq/95-rmi4_smb-439863  [015] ..... 25141.206128: smbus_read: i2c-11 a=02c f=0040 c=1 BLOCK_DATA
 irq/95-rmi4_smb-439863  [015] ..... 25141.210094: smbus_reply: i2c-11 a=02c f=0000 c=1 BLOCK_DATA l=33 [20-04-10-00-80-00-7a-15-06-00-81-02-fe-01-00-00-01-e0-01-04-00-00-00-00-00-00-c4-54-4d-33-34-37-31]
 irq/95-rmi4_smb-439863  [015] ..... 25141.210096: smbus_result: i2c-11 a=02c f=0000 c=1 BLOCK_DATA rd res=0
 irq/95-rmi4_smb-439863  [015] ..... 25141.210098: smbus_read: i2c-11 a=02c f=0040 c=2 BLOCK_DATA
 irq/95-rmi4_smb-439863  [015] ..... 25141.212684: smbus_reply: i2c-11 a=02c f=0000 c=2 BLOCK_DATA l=16 [0f-44-57-20-52-35-2e-30-2e-30-00-00-00-00-00-00]
 irq/95-rmi4_smb-439863  [015] ..... 25141.212687: smbus_result: i2c-11 a=02c f=0000 c=2 BLOCK_DATA rd res=0
 irq/95-rmi4_smb-439863  [015] ..... 25141.214588: smbus_read: i2c-11 a=02c f=0040 c=6 BLOCK_DATA
 irq/95-rmi4_smb-439863  [015] ..... 25141.215636: smbus_reply: i2c-11 a=02c f=0000 c=6 BLOCK_DATA l=3 [02-18-00]
 irq/95-rmi4_smb-439863  [015] ..... 25141.215637: smbus_result: i2c-11 a=02c f=0000 c=6 BLOCK_DATA rd res=0
 irq/95-rmi4_smb-439863  [015] ..... 25141.215640: smbus_read: i2c-11 a=02c f=0040 c=0 BLOCK_DATA
 irq/95-rmi4_smb-439863  [015] ..... 25141.219741: smbus_reply: i2c-11 a=02c f=0000 c=0 BLOCK_DATA l=33 [20-01-f4-01-c1-01-3b-04-04-00-00-00-00-00-00-00-00-00-00-00-00-00-00-00-00-00-00-00-00-00-00-00-00]
 irq/95-rmi4_smb-439863  [015] ..... 25141.219742: smbus_result: i2c-11 a=02c f=0000 c=0 BLOCK_DATA rd res=0
 irq/95-rmi4_smb-439863  [015] ..... 25141.219744: smbus_read: i2c-11 a=02c f=0040 c=1 BLOCK_DATA
 irq/95-rmi4_smb-439863  [015] ..... 25141.223693: smbus_reply: i2c-11 a=02c f=0000 c=1 BLOCK_DATA l=33 [20-04-10-00-80-00-7a-15-06-00-81-02-fe-01-00-00-01-e0-01-04-00-00-00-00-00-00-c4-54-4d-33-34-37-31]
 irq/95-rmi4_smb-439863  [015] ..... 25141.223694: smbus_result: i2c-11 a=02c f=0000 c=1 BLOCK_DATA rd res=0
 irq/95-rmi4_smb-439863  [015] ..... 25141.223695: smbus_read: i2c-11 a=02c f=0040 c=2 BLOCK_DATA
 irq/95-rmi4_smb-439863  [015] ..... 25141.226196: smbus_reply: i2c-11 a=02c f=0000 c=2 BLOCK_DATA l=16 [0f-44-57-20-52-35-2e-30-2e-30-00-00-00-00-00-00]
 irq/95-rmi4_smb-439863  [015] ..... 25141.226197: smbus_result: i2c-11 a=02c f=0000 c=2 BLOCK_DATA rd res=0
 irq/95-rmi4_smb-439863  [015] ..... 25141.229336: smbus_read: i2c-11 a=02c f=0040 c=6 BLOCK_DATA
 irq/95-rmi4_smb-439863  [015] ..... 25141.230547: smbus_reply: i2c-11 a=02c f=0000 c=6 BLOCK_DATA l=3 [02-18-00]
 irq/95-rmi4_smb-439863  [015] ..... 25141.230549: smbus_result: i2c-11 a=02c f=0000 c=6 BLOCK_DATA rd res=0
 irq/95-rmi4_smb-439863  [015] ..... 25141.230552: smbus_read: i2c-11 a=02c f=0040 c=0 BLOCK_DATA
 irq/95-rmi4_smb-439863  [015] ..... 25141.234731: smbus_reply: i2c-11 a=02c f=0000 c=0 BLOCK_DATA l=33 [20-01-fd-01-dd-01-39-04-03-00-00-00-00-00-00-00-00-00-00-00-00-00-00-00-00-00-00-00-00-00-00-00-00]
 irq/95-rmi4_smb-439863  [015] ..... 25141.234733: smbus_result: i2c-11 a=02c f=0000 c=0 BLOCK_DATA rd res=0
 irq/95-rmi4_smb-439863  [015] ..... 25141.234734: smbus_read: i2c-11 a=02c f=0040 c=1 BLOCK_DATA
 irq/95-rmi4_smb-439863  [015] ..... 25141.238600: smbus_reply: i2c-11 a=02c f=0000 c=1 BLOCK_DATA l=33 [20-04-10-00-80-00-7a-15-06-00-81-02-fe-01-00-00-01-e0-01-04-00-00-00-00-00-00-c4-54-4d-33-34-37-31]
 irq/95-rmi4_smb-439863  [015] ..... 25141.238601: smbus_result: i2c-11 a=02c f=0000 c=1 BLOCK_DATA rd res=0
 irq/95-rmi4_smb-439863  [015] ..... 25141.238603: smbus_read: i2c-11 a=02c f=0040 c=2 BLOCK_DATA
 irq/95-rmi4_smb-439863  [015] ..... 25141.241183: smbus_reply: i2c-11 a=02c f=0000 c=2 BLOCK_DATA l=16 [0f-44-57-20-52-35-2e-30-2e-30-00-00-00-00-00-00]
 irq/95-rmi4_smb-439863  [015] ..... 25141.241184: smbus_result: i2c-11 a=02c f=0000 c=2 BLOCK_DATA rd res=0
 irq/95-rmi4_smb-439863  [015] ..... 25141.244179: smbus_read: i2c-11 a=02c f=0040 c=6 BLOCK_DATA
 irq/95-rmi4_smb-439863  [015] ..... 25141.245141: smbus_reply: i2c-11 a=02c f=0000 c=6 BLOCK_DATA l=3 [02-18-00]
 irq/95-rmi4_smb-439863  [015] ..... 25141.245142: smbus_result: i2c-11 a=02c f=0000 c=6 BLOCK_DATA rd res=0
 irq/95-rmi4_smb-439863  [015] ..... 25141.245145: smbus_read: i2c-11 a=02c f=0040 c=0 BLOCK_DATA
 irq/95-rmi4_smb-439863  [015] ..... 25141.249241: smbus_reply: i2c-11 a=02c f=0000 c=0 BLOCK_DATA l=33 [20-01-fe-01-f4-01-39-03-02-00-00-00-00-00-00-00-00-00-00-00-00-00-00-00-00-00-00-00-00-00-00-00-00]
 irq/95-rmi4_smb-439863  [015] ..... 25141.249242: smbus_result: i2c-11 a=02c f=0000 c=0 BLOCK_DATA rd res=0
 irq/95-rmi4_smb-439863  [015] ..... 25141.249243: smbus_read: i2c-11 a=02c f=0040 c=1 BLOCK_DATA
 irq/95-rmi4_smb-439863  [015] ..... 25141.253070: smbus_reply: i2c-11 a=02c f=0000 c=1 BLOCK_DATA l=33 [20-04-10-00-80-00-7a-15-06-00-81-02-fe-01-00-00-01-e0-01-04-00-00-00-00-00-00-c4-54-4d-33-34-37-31]
 irq/95-rmi4_smb-439863  [015] ..... 25141.253071: smbus_result: i2c-11 a=02c f=0000 c=1 BLOCK_DATA rd res=0
 irq/95-rmi4_smb-439863  [015] ..... 25141.253072: smbus_read: i2c-11 a=02c f=0040 c=2 BLOCK_DATA
 irq/95-rmi4_smb-439863  [015] ..... 25141.255686: smbus_reply: i2c-11 a=02c f=0000 c=2 BLOCK_DATA l=16 [0f-44-57-20-52-35-2e-30-2e-30-00-00-00-00-00-00]
 irq/95-rmi4_smb-439863  [015] ..... 25141.255687: smbus_result: i2c-11 a=02c f=0000 c=2 BLOCK_DATA rd res=0
 irq/95-rmi4_smb-439863  [015] ..... 25141.258989: smbus_read: i2c-11 a=02c f=0040 c=6 BLOCK_DATA
 irq/95-rmi4_smb-439863  [015] ..... 25141.260158: smbus_reply: i2c-11 a=02c f=0000 c=6 BLOCK_DATA l=3 [02-18-00]
 irq/95-rmi4_smb-439863  [015] ..... 25141.260158: smbus_result: i2c-11 a=02c f=0000 c=6 BLOCK_DATA rd res=0
 irq/95-rmi4_smb-439863  [015] ..... 25141.260161: smbus_read: i2c-11 a=02c f=0040 c=0 BLOCK_DATA
 irq/95-rmi4_smb-439863  [015] ..... 25141.264255: smbus_reply: i2c-11 a=02c f=0000 c=0 BLOCK_DATA l=33 [20-01-f9-01-04-02-39-04-02-00-00-00-00-00-00-00-00-00-00-00-00-00-00-00-00-00-00-00-00-00-00-00-00]
 irq/95-rmi4_smb-439863  [015] ..... 25141.264255: smbus_result: i2c-11 a=02c f=0000 c=0 BLOCK_DATA rd res=0
 irq/95-rmi4_smb-439863  [015] ..... 25141.264257: smbus_read: i2c-11 a=02c f=0040 c=1 BLOCK_DATA
 irq/95-rmi4_smb-439863  [015] ..... 25141.268069: smbus_reply: i2c-11 a=02c f=0000 c=1 BLOCK_DATA l=33 [20-04-10-00-80-00-7a-15-06-00-81-02-fe-01-00-00-01-e0-01-04-00-00-00-00-00-00-c4-54-4d-33-34-37-31]
 irq/95-rmi4_smb-439863  [015] ..... 25141.268069: smbus_result: i2c-11 a=02c f=0000 c=1 BLOCK_DATA rd res=0
 irq/95-rmi4_smb-439863  [015] ..... 25141.268071: smbus_read: i2c-11 a=02c f=0040 c=2 BLOCK_DATA
 irq/95-rmi4_smb-439863  [015] ..... 25141.270673: smbus_reply: i2c-11 a=02c f=0000 c=2 BLOCK_DATA l=16 [0f-44-57-20-52-35-2e-30-2e-30-00-00-00-00-00-00]
 irq/95-rmi4_smb-439863  [015] ..... 25141.270674: smbus_result: i2c-11 a=02c f=0000 c=2 BLOCK_DATA rd res=0
 irq/95-rmi4_smb-439863  [015] ..... 25141.273860: smbus_read: i2c-11 a=02c f=0040 c=6 BLOCK_DATA
 irq/95-rmi4_smb-439863  [015] ..... 25141.275067: smbus_reply: i2c-11 a=02c f=0000 c=6 BLOCK_DATA l=3 [02-18-00]
 irq/95-rmi4_smb-439863  [015] ..... 25141.275068: smbus_result: i2c-11 a=02c f=0000 c=6 BLOCK_DATA rd res=0
 irq/95-rmi4_smb-439863  [015] ..... 25141.275071: smbus_read: i2c-11 a=02c f=0040 c=0 BLOCK_DATA
 irq/95-rmi4_smb-439863  [015] ..... 25141.279239: smbus_reply: i2c-11 a=02c f=0000 c=0 BLOCK_DATA l=33 [20-01-eb-01-0f-02-3a-04-02-00-00-00-00-00-00-00-00-00-00-00-00-00-00-00-00-00-00-00-00-00-00-00-00]
 irq/95-rmi4_smb-439863  [015] ..... 25141.279240: smbus_result: i2c-11 a=02c f=0000 c=0 BLOCK_DATA rd res=0
 irq/95-rmi4_smb-439863  [015] ..... 25141.279242: smbus_read: i2c-11 a=02c f=0040 c=1 BLOCK_DATA
 irq/95-rmi4_smb-439863  [015] ..... 25141.283115: smbus_reply: i2c-11 a=02c f=0000 c=1 BLOCK_DATA l=33 [20-04-10-00-80-00-7a-15-06-00-81-02-fe-01-00-00-01-e0-01-04-00-00-00-00-00-00-c4-54-4d-33-34-37-31]
 irq/95-rmi4_smb-439863  [015] ..... 25141.283117: smbus_result: i2c-11 a=02c f=0000 c=1 BLOCK_DATA rd res=0
 irq/95-rmi4_smb-439863  [015] ..... 25141.283118: smbus_read: i2c-11 a=02c f=0040 c=2 BLOCK_DATA
 irq/95-rmi4_smb-439863  [015] ..... 25141.285698: smbus_reply: i2c-11 a=02c f=0000 c=2 BLOCK_DATA l=16 [0f-44-57-20-52-35-2e-30-2e-30-00-00-00-00-00-00]
 irq/95-rmi4_smb-439863  [015] ..... 25141.285700: smbus_result: i2c-11 a=02c f=0000 c=2 BLOCK_DATA rd res=0
 irq/95-rmi4_smb-439863  [015] ..... 25141.288683: smbus_read: i2c-11 a=02c f=0040 c=6 BLOCK_DATA
 irq/95-rmi4_smb-439863  [015] ..... 25141.289895: smbus_reply: i2c-11 a=02c f=0000 c=6 BLOCK_DATA l=3 [02-18-00]
 irq/95-rmi4_smb-439863  [015] ..... 25141.289896: smbus_result: i2c-11 a=02c f=0000 c=6 BLOCK_DATA rd res=0
 irq/95-rmi4_smb-439863  [015] ..... 25141.289899: smbus_read: i2c-11 a=02c f=0040 c=0 BLOCK_DATA
 irq/95-rmi4_smb-439863  [015] ..... 25141.293742: smbus_reply: i2c-11 a=02c f=0000 c=0 BLOCK_DATA l=33 [20-01-d3-01-12-02-3b-04-03-00-00-00-00-00-00-00-00-00-00-00-00-00-00-00-00-00-00-00-00-00-00-00-00]
 irq/95-rmi4_smb-439863  [015] ..... 25141.293743: smbus_result: i2c-11 a=02c f=0000 c=0 BLOCK_DATA rd res=0
 irq/95-rmi4_smb-439863  [015] ..... 25141.293744: smbus_read: i2c-11 a=02c f=0040 c=1 BLOCK_DATA
 irq/95-rmi4_smb-439863  [015] ..... 25141.297609: smbus_reply: i2c-11 a=02c f=0000 c=1 BLOCK_DATA l=33 [20-04-10-00-80-00-7a-15-06-00-81-02-fe-01-00-00-01-e0-01-04-00-00-00-00-00-00-c4-54-4d-33-34-37-31]
 irq/95-rmi4_smb-439863  [015] ..... 25141.297611: smbus_result: i2c-11 a=02c f=0000 c=1 BLOCK_DATA rd res=0
 irq/95-rmi4_smb-439863  [015] ..... 25141.297613: smbus_read: i2c-11 a=02c f=0040 c=2 BLOCK_DATA
 irq/95-rmi4_smb-439863  [015] ..... 25141.300178: smbus_reply: i2c-11 a=02c f=0000 c=2 BLOCK_DATA l=16 [0f-44-57-20-52-35-2e-30-2e-30-00-00-00-00-00-00]
 irq/95-rmi4_smb-439863  [015] ..... 25141.300179: smbus_result: i2c-11 a=02c f=0000 c=2 BLOCK_DATA rd res=0
 irq/95-rmi4_smb-439863  [015] ..... 25141.303493: smbus_read: i2c-11 a=02c f=0040 c=6 BLOCK_DATA
 irq/95-rmi4_smb-439863  [015] ..... 25141.304640: smbus_reply: i2c-11 a=02c f=0000 c=6 BLOCK_DATA l=3 [02-18-00]
 irq/95-rmi4_smb-439863  [015] ..... 25141.304641: smbus_result: i2c-11 a=02c f=0000 c=6 BLOCK_DATA rd res=0
 irq/95-rmi4_smb-439863  [015] ..... 25141.304644: smbus_read: i2c-11 a=02c f=0040 c=0 BLOCK_DATA
 irq/95-rmi4_smb-439863  [015] ..... 25141.308743: smbus_reply: i2c-11 a=02c f=0000 c=0 BLOCK_DATA l=33 [20-01-b9-01-0c-02-3c-03-04-00-00-00-00-00-00-00-00-00-00-00-00-00-00-00-00-00-00-00-00-00-00-00-00]
 irq/95-rmi4_smb-439863  [015] ..... 25141.308744: smbus_result: i2c-11 a=02c f=0000 c=0 BLOCK_DATA rd res=0
 irq/95-rmi4_smb-439863  [015] ..... 25141.308745: smbus_read: i2c-11 a=02c f=0040 c=1 BLOCK_DATA
 irq/95-rmi4_smb-439863  [015] ..... 25141.312590: smbus_reply: i2c-11 a=02c f=0000 c=1 BLOCK_DATA l=33 [20-04-10-00-80-00-7a-15-06-00-81-02-fe-01-00-00-01-e0-01-04-00-00-00-00-00-00-c4-54-4d-33-34-37-31]
 irq/95-rmi4_smb-439863  [015] ..... 25141.312592: smbus_result: i2c-11 a=02c f=0000 c=1 BLOCK_DATA rd res=0
 irq/95-rmi4_smb-439863  [015] ..... 25141.312595: smbus_read: i2c-11 a=02c f=0040 c=2 BLOCK_DATA
 irq/95-rmi4_smb-439863  [015] ..... 25141.315212: smbus_reply: i2c-11 a=02c f=0000 c=2 BLOCK_DATA l=16 [0f-44-57-20-52-35-2e-30-2e-30-00-00-00-00-00-00]
 irq/95-rmi4_smb-439863  [015] ..... 25141.315213: smbus_result: i2c-11 a=02c f=0000 c=2 BLOCK_DATA rd res=0
 irq/95-rmi4_smb-439863  [015] ..... 25141.318362: smbus_read: i2c-11 a=02c f=0040 c=6 BLOCK_DATA
 irq/95-rmi4_smb-439863  [015] ..... 25141.319597: smbus_reply: i2c-11 a=02c f=0000 c=6 BLOCK_DATA l=3 [02-18-00]
 irq/95-rmi4_smb-439863  [015] ..... 25141.319599: smbus_result: i2c-11 a=02c f=0000 c=6 BLOCK_DATA rd res=0
 irq/95-rmi4_smb-439863  [015] ..... 25141.319602: smbus_read: i2c-11 a=02c f=0040 c=0 BLOCK_DATA
 irq/95-rmi4_smb-439863  [015] ..... 25141.323744: smbus_reply: i2c-11 a=02c f=0000 c=0 BLOCK_DATA l=33 [20-01-9d-01-02-02-3d-04-04-00-00-00-00-00-00-00-00-00-00-00-00-00-00-00-00-00-00-00-00-00-00-00-00]
 irq/95-rmi4_smb-439863  [015] ..... 25141.323745: smbus_result: i2c-11 a=02c f=0000 c=0 BLOCK_DATA rd res=0
 irq/95-rmi4_smb-439863  [015] ..... 25141.323746: smbus_read: i2c-11 a=02c f=0040 c=1 BLOCK_DATA
 irq/95-rmi4_smb-439863  [015] ..... 25141.327698: smbus_reply: i2c-11 a=02c f=0000 c=1 BLOCK_DATA l=33 [20-04-10-00-80-00-7a-15-06-00-81-02-fe-01-00-00-01-e0-01-04-00-00-00-00-00-00-c4-54-4d-33-34-37-31]
 irq/95-rmi4_smb-439863  [015] ..... 25141.327698: smbus_result: i2c-11 a=02c f=0000 c=1 BLOCK_DATA rd res=0
 irq/95-rmi4_smb-439863  [015] ..... 25141.327699: smbus_read: i2c-11 a=02c f=0040 c=2 BLOCK_DATA
 irq/95-rmi4_smb-439863  [015] ..... 25141.329953: smbus_reply: i2c-11 a=02c f=0000 c=2 BLOCK_DATA l=16 [0f-44-57-20-52-35-2e-30-2e-30-00-00-00-00-00-00]
 irq/95-rmi4_smb-439863  [015] ..... 25141.329953: smbus_result: i2c-11 a=02c f=0000 c=2 BLOCK_DATA rd res=0
   systemd-sleep-485341  [002] ..... 25141.330766: suspend_resume: sync_filesystems[0] end
 irq/95-rmi4_smb-439863  [015] ..... 25141.333215: smbus_read: i2c-11 a=02c f=0040 c=6 BLOCK_DATA
 irq/95-rmi4_smb-439863  [015] ..... 25141.334450: smbus_reply: i2c-11 a=02c f=0000 c=6 BLOCK_DATA l=3 [02-18-00]
 irq/95-rmi4_smb-439863  [015] ..... 25141.334451: smbus_result: i2c-11 a=02c f=0000 c=6 BLOCK_DATA rd res=0
 irq/95-rmi4_smb-439863  [015] ..... 25141.334455: smbus_read: i2c-11 a=02c f=0040 c=0 BLOCK_DATA
 irq/95-rmi4_smb-439863  [015] ..... 25141.338282: smbus_reply: i2c-11 a=02c f=0000 c=0 BLOCK_DATA l=33 [20-01-87-01-f5-01-39-04-02-00-00-00-00-00-00-00-00-00-00-00-00-00-00-00-00-00-00-00-00-00-00-00-00]
 irq/95-rmi4_smb-439863  [015] ..... 25141.338283: smbus_result: i2c-11 a=02c f=0000 c=0 BLOCK_DATA rd res=0
 irq/95-rmi4_smb-439863  [015] ..... 25141.338285: smbus_read: i2c-11 a=02c f=0040 c=1 BLOCK_DATA
 irq/95-rmi4_smb-439863  [015] ..... 25141.342149: smbus_reply: i2c-11 a=02c f=0000 c=1 BLOCK_DATA l=33 [20-04-10-00-80-00-7a-15-06-00-81-02-fe-01-00-00-01-e0-01-04-00-00-00-00-00-00-c4-54-4d-33-34-37-31]
 irq/95-rmi4_smb-439863  [015] ..... 25141.342150: smbus_result: i2c-11 a=02c f=0000 c=1 BLOCK_DATA rd res=0
 irq/95-rmi4_smb-439863  [015] ..... 25141.342151: smbus_read: i2c-11 a=02c f=0040 c=2 BLOCK_DATA
 irq/95-rmi4_smb-439863  [015] ..... 25141.344701: smbus_reply: i2c-11 a=02c f=0000 c=2 BLOCK_DATA l=16 [0f-44-57-20-52-35-2e-30-2e-30-00-00-00-00-00-00]
 irq/95-rmi4_smb-439863  [015] ..... 25141.344702: smbus_result: i2c-11 a=02c f=0000 c=2 BLOCK_DATA rd res=0
 irq/95-rmi4_smb-439863  [015] ..... 25141.347853: smbus_read: i2c-11 a=02c f=0040 c=6 BLOCK_DATA
 irq/95-rmi4_smb-439863  [015] ..... 25141.349434: smbus_reply: i2c-11 a=02c f=0000 c=6 BLOCK_DATA l=3 [02-18-00]
 irq/95-rmi4_smb-439863  [015] ..... 25141.349435: smbus_result: i2c-11 a=02c f=0000 c=6 BLOCK_DATA rd res=0
 irq/95-rmi4_smb-439863  [015] ..... 25141.349437: smbus_read: i2c-11 a=02c f=0040 c=0 BLOCK_DATA
 irq/95-rmi4_smb-439863  [015] ..... 25141.353255: smbus_reply: i2c-11 a=02c f=0000 c=0 BLOCK_DATA l=33 [20-01-87-01-f5-01-2b-03-01-00-00-00-00-00-00-00-00-00-00-00-00-00-00-00-00-00-00-00-00-00-00-00-00]
 irq/95-rmi4_smb-439863  [015] ..... 25141.353256: smbus_result: i2c-11 a=02c f=0000 c=0 BLOCK_DATA rd res=0
 irq/95-rmi4_smb-439863  [015] ..... 25141.353258: smbus_read: i2c-11 a=02c f=0040 c=1 BLOCK_DATA
 irq/95-rmi4_smb-439863  [015] ..... 25141.357118: smbus_reply: i2c-11 a=02c f=0000 c=1 BLOCK_DATA l=33 [20-04-10-00-80-00-7a-15-06-00-81-02-fe-01-00-00-01-e0-01-04-00-00-00-00-00-00-c4-54-4d-33-34-37-31]
 irq/95-rmi4_smb-439863  [015] ..... 25141.357119: smbus_result: i2c-11 a=02c f=0000 c=1 BLOCK_DATA rd res=0
 irq/95-rmi4_smb-439863  [015] ..... 25141.357120: smbus_read: i2c-11 a=02c f=0040 c=2 BLOCK_DATA
 irq/95-rmi4_smb-439863  [015] ..... 25141.359677: smbus_reply: i2c-11 a=02c f=0000 c=2 BLOCK_DATA l=16 [0f-44-57-20-52-35-2e-30-2e-30-00-00-00-00-00-00]
 irq/95-rmi4_smb-439863  [015] ..... 25141.359677: smbus_result: i2c-11 a=02c f=0000 c=2 BLOCK_DATA rd res=0
 irq/95-rmi4_smb-439863  [015] ..... 25141.365189: smbus_read: i2c-11 a=02c f=0040 c=6 BLOCK_DATA
 irq/95-rmi4_smb-439863  [015] ..... 25141.366173: smbus_reply: i2c-11 a=02c f=0000 c=6 BLOCK_DATA l=3 [02-18-00]
 irq/95-rmi4_smb-439863  [015] ..... 25141.366174: smbus_result: i2c-11 a=02c f=0000 c=6 BLOCK_DATA rd res=0
 irq/95-rmi4_smb-439863  [015] ..... 25141.366176: smbus_read: i2c-11 a=02c f=0040 c=0 BLOCK_DATA
 irq/95-rmi4_smb-439863  [015] ..... 25141.370252: smbus_reply: i2c-11 a=02c f=0000 c=0 BLOCK_DATA l=33 [20-00-00-00-00-00-00-00-00-00-00-00-00-00-00-00-00-00-00-00-00-00-00-00-00-00-00-00-00-00-00-00-00]
 irq/95-rmi4_smb-439863  [015] ..... 25141.370253: smbus_result: i2c-11 a=02c f=0000 c=0 BLOCK_DATA rd res=0
 irq/95-rmi4_smb-439863  [015] ..... 25141.370254: smbus_read: i2c-11 a=02c f=0040 c=1 BLOCK_DATA
 irq/95-rmi4_smb-439863  [015] ..... 25141.374172: smbus_reply: i2c-11 a=02c f=0000 c=1 BLOCK_DATA l=33 [20-04-10-00-80-00-7a-15-06-00-81-02-fe-01-00-00-01-e0-01-04-00-00-00-00-00-00-c4-54-4d-33-34-37-31]
 irq/95-rmi4_smb-439863  [015] ..... 25141.374173: smbus_result: i2c-11 a=02c f=0000 c=1 BLOCK_DATA rd res=0
 irq/95-rmi4_smb-439863  [015] ..... 25141.374174: smbus_read: i2c-11 a=02c f=0040 c=2 BLOCK_DATA
 irq/95-rmi4_smb-439863  [015] ..... 25141.376682: smbus_reply: i2c-11 a=02c f=0000 c=2 BLOCK_DATA l=16 [0f-44-57-20-52-35-2e-30-2e-30-00-00-00-00-00-00]
 irq/95-rmi4_smb-439863  [015] ..... 25141.376683: smbus_result: i2c-11 a=02c f=0000 c=2 BLOCK_DATA rd res=0
   systemd-sleep-485341  [002] ..... 25141.430510: suspend_resume: freeze_processes[0] begin
   systemd-sleep-485341  [002] ..... 25141.434786: suspend_resume: freeze_processes[0] end
   systemd-sleep-485341  [002] ..... 25141.434787: suspend_resume: suspend_enter[3] end
   systemd-sleep-485341  [002] ..... 25141.434867: suspend_resume: dpm_prepare[2] begin
   systemd-sleep-485341  [002] ..... 25141.435151: suspend_resume: dpm_prepare[2] end
   systemd-sleep-485341  [002] ..... 25141.435152: suspend_resume: dpm_suspend[2] begin
   systemd-sleep-485341  [002] ..... 25141.435581: smbus_write: i2c-11 a=02c f=0040 c=5 BLOCK_DATA l=2 [01-f5]
   systemd-sleep-485341  [002] ..... 25141.436625: smbus_result: i2c-11 a=02c f=0000 c=5 BLOCK_DATA wr res=0
 irq/95-rmi4_smb-439863  [015] ..... 25141.457459: smbus_read: i2c-11 a=02c f=0040 c=6 BLOCK_DATA
 irq/95-rmi4_smb-439863  [015] ..... 25141.458703: smbus_reply: i2c-11 a=02c f=0000 c=6 BLOCK_DATA l=3 [02-80-00]
 irq/95-rmi4_smb-439863  [015] ..... 25141.458705: smbus_result: i2c-11 a=02c f=0000 c=6 BLOCK_DATA rd res=0
 irq/95-rmi4_smb-439863  [015] ..... 25141.458710: smbus_read: i2c-11 a=02c f=0040 c=7 BLOCK_DATA
 irq/95-rmi4_smb-439863  [015] ..... 25141.461033: smbus_reply: i2c-11 a=02c f=0000 c=7 BLOCK_DATA l=15 [0e-01-fa-00-00-00-00-00-00-00-00-00-00-00-00]
 irq/95-rmi4_smb-439863  [015] ..... 25141.461034: smbus_result: i2c-11 a=02c f=0000 c=7 BLOCK_DATA rd res=0
   systemd-sleep-485341  [002] ..... 25141.461095: smbus_write: i2c-11 a=02c f=0040 c=5 BLOCK_DATA l=2 [01-f6]
   systemd-sleep-485341  [002] ..... 25141.462178: smbus_result: i2c-11 a=02c f=0000 c=5 BLOCK_DATA wr res=0
 irq/95-rmi4_smb-439863  [015] ..... 25141.466906: smbus_read: i2c-11 a=02c f=0040 c=6 BLOCK_DATA
 irq/95-rmi4_smb-439863  [015] ..... 25141.468208: smbus_reply: i2c-11 a=02c f=0000 c=6 BLOCK_DATA l=3 [02-80-00]
 irq/95-rmi4_smb-439863  [015] ..... 25141.468209: smbus_result: i2c-11 a=02c f=0000 c=6 BLOCK_DATA rd res=0
 irq/95-rmi4_smb-439863  [015] ..... 25141.468213: smbus_read: i2c-11 a=02c f=0040 c=7 BLOCK_DATA
 irq/95-rmi4_smb-439863  [015] ..... 25141.470717: smbus_reply: i2c-11 a=02c f=0000 c=7 BLOCK_DATA l=15 [0e-01-fa-00-00-00-00-00-00-00-00-00-00-00-00]
 irq/95-rmi4_smb-439863  [015] ..... 25141.470718: smbus_result: i2c-11 a=02c f=0000 c=7 BLOCK_DATA rd res=0
   systemd-sleep-485341  [002] ..... 25141.470864: smbus_write: i2c-11 a=02c f=0040 c=5 BLOCK_DATA l=2 [01-f4]
   systemd-sleep-485341  [002] ..... 25141.471628: smbus_result: i2c-11 a=02c f=0000 c=5 BLOCK_DATA wr res=0
 irq/95-rmi4_smb-439863  [015] ..... 25141.474579: smbus_read: i2c-11 a=02c f=0040 c=6 BLOCK_DATA
 irq/95-rmi4_smb-439863  [015] ..... 25141.475698: smbus_reply: i2c-11 a=02c f=0000 c=6 BLOCK_DATA l=3 [02-80-00]
 irq/95-rmi4_smb-439863  [015] ..... 25141.475700: smbus_result: i2c-11 a=02c f=0000 c=6 BLOCK_DATA rd res=0
 irq/95-rmi4_smb-439863  [015] ..... 25141.475706: smbus_read: i2c-11 a=02c f=0040 c=7 BLOCK_DATA
 irq/95-rmi4_smb-439863  [015] ..... 25141.478085: smbus_reply: i2c-11 a=02c f=0000 c=7 BLOCK_DATA l=15 [0e-01-fa-00-00-00-00-00-00-00-00-00-00-00-00]
 irq/95-rmi4_smb-439863  [015] ..... 25141.478086: smbus_result: i2c-11 a=02c f=0000 c=7 BLOCK_DATA rd res=0
   kworker/u64:0-471752  [009] ..... 25141.478324: smbus_write: i2c-11 a=02c f=0040 c=83 BLOCK_DATA l=5 [04-14-00-01-01]
   kworker/u64:0-471752  [004] ..... 25141.480505: smbus_result: i2c-11 a=02c f=0000 c=83 BLOCK_DATA wr res=0
   kworker/u64:0-471752  [004] ..... 25141.480506: smbus_write: i2c-11 a=02c f=0040 c=3 BLOCK_DATA l=2 [01-81]
   kworker/u64:0-471752  [006] ..... 25141.482003: smbus_result: i2c-11 a=02c f=0000 c=3 BLOCK_DATA wr res=0
   systemd-sleep-485341  [006] ..... 25141.837020: suspend_resume: dpm_suspend[2] end
   systemd-sleep-485341  [006] ..... 25141.837022: suspend_resume: dpm_suspend_late[2] begin
   systemd-sleep-485341  [003] ..... 25141.838631: suspend_resume: dpm_suspend_late[2] end
   systemd-sleep-485341  [003] ..... 25141.838776: suspend_resume: dpm_suspend_noirq[2] begin
   systemd-sleep-485341  [002] ..... 25141.908488: suspend_resume: dpm_suspend_noirq[2] end
   systemd-sleep-485341  [002] ..... 25141.913295: suspend_resume: CPU_OFF[15] begin
   systemd-sleep-485341  [002] ..... 25141.916667: suspend_resume: CPU_OFF[15] end
   systemd-sleep-485341  [002] ..... 25141.916668: suspend_resume: CPU_OFF[14] begin
   systemd-sleep-485341  [002] ..... 25141.919736: suspend_resume: CPU_OFF[14] end
   systemd-sleep-485341  [002] ..... 25141.919737: suspend_resume: CPU_OFF[13] begin
   systemd-sleep-485341  [002] ..... 25141.922852: suspend_resume: CPU_OFF[13] end
   systemd-sleep-485341  [002] ..... 25141.922852: suspend_resume: CPU_OFF[12] begin
   systemd-sleep-485341  [002] ..... 25141.925865: suspend_resume: CPU_OFF[12] end
   systemd-sleep-485341  [002] ..... 25141.925866: suspend_resume: CPU_OFF[11] begin
   systemd-sleep-485341  [002] ..... 25141.928794: suspend_resume: CPU_OFF[11] end
   systemd-sleep-485341  [002] ..... 25141.928795: suspend_resume: CPU_OFF[10] begin
   systemd-sleep-485341  [002] ..... 25141.931964: suspend_resume: CPU_OFF[10] end
   systemd-sleep-485341  [002] ..... 25141.931964: suspend_resume: CPU_OFF[9] begin
   systemd-sleep-485341  [002] ..... 25141.935120: suspend_resume: CPU_OFF[9] end
   systemd-sleep-485341  [002] ..... 25141.935120: suspend_resume: CPU_OFF[8] begin
   systemd-sleep-485341  [002] ..... 25141.938229: suspend_resume: CPU_OFF[8] end
   systemd-sleep-485341  [002] ..... 25141.938230: suspend_resume: CPU_OFF[7] begin
   systemd-sleep-485341  [002] ..... 25141.941416: suspend_resume: CPU_OFF[7] end
   systemd-sleep-485341  [002] ..... 25141.941417: suspend_resume: CPU_OFF[6] begin
   systemd-sleep-485341  [005] ..... 25141.944398: suspend_resume: CPU_OFF[6] end
   systemd-sleep-485341  [005] ..... 25141.944399: suspend_resume: CPU_OFF[5] begin
   systemd-sleep-485341  [003] ..... 25141.947215: suspend_resume: CPU_OFF[5] end
   systemd-sleep-485341  [003] ..... 25141.947216: suspend_resume: CPU_OFF[4] begin
   systemd-sleep-485341  [002] ..... 25141.950202: suspend_resume: CPU_OFF[4] end
   systemd-sleep-485341  [002] ..... 25141.950203: suspend_resume: CPU_OFF[3] begin
   systemd-sleep-485341  [002] ..... 25141.953156: suspend_resume: CPU_OFF[3] end
   systemd-sleep-485341  [002] ..... 25141.953157: suspend_resume: CPU_OFF[2] begin
   systemd-sleep-485341  [000] ..... 25141.956228: suspend_resume: CPU_OFF[2] end
   systemd-sleep-485341  [000] ..... 25141.956229: suspend_resume: CPU_OFF[1] begin
   systemd-sleep-485341  [000] ..... 25141.959682: suspend_resume: CPU_OFF[1] end
   systemd-sleep-485341  [000] d.... 25141.959683: suspend_resume: syscore_suspend[0] begin
   systemd-sleep-485341  [000] d.... 25141.960011: suspend_resume: syscore_suspend[0] end
   systemd-sleep-485341  [000] d.... 25141.960013: suspend_resume: machine_suspend[3] begin
   systemd-sleep-485341  [000] d.... 25141.960014: suspend_resume: acpi_suspend[3] begin
   systemd-sleep-485341  [000] d.... 25141.960149: suspend_resume: acpi_suspend[3] end
   systemd-sleep-485341  [000] d.... 25141.960367: suspend_resume: machine_suspend[3] end
   systemd-sleep-485341  [000] d.... 25141.960367: suspend_resume: syscore_resume[0] begin
   systemd-sleep-485341  [000] dN... 25142.057347: suspend_resume: syscore_resume[0] end
   systemd-sleep-485341  [000] ..... 25142.057426: suspend_resume: CPU_ON[1] begin
   systemd-sleep-485341  [000] ..... 25142.060811: suspend_resume: CPU_ON[1] end
   systemd-sleep-485341  [000] ..... 25142.060814: suspend_resume: CPU_ON[2] begin
   systemd-sleep-485341  [000] ..... 25142.064010: suspend_resume: CPU_ON[2] end
   systemd-sleep-485341  [000] ..... 25142.064013: suspend_resume: CPU_ON[3] begin
   systemd-sleep-485341  [000] ..... 25142.067100: suspend_resume: CPU_ON[3] end
   systemd-sleep-485341  [000] ..... 25142.067102: suspend_resume: CPU_ON[4] begin
   systemd-sleep-485341  [000] ..... 25142.070619: suspend_resume: CPU_ON[4] end
   systemd-sleep-485341  [000] ..... 25142.070621: suspend_resume: CPU_ON[5] begin
   systemd-sleep-485341  [000] ..... 25142.073797: suspend_resume: CPU_ON[5] end
   systemd-sleep-485341  [000] ..... 25142.073800: suspend_resume: CPU_ON[6] begin
   systemd-sleep-485341  [000] ..... 25142.077000: suspend_resume: CPU_ON[6] end
   systemd-sleep-485341  [000] ..... 25142.077003: suspend_resume: CPU_ON[7] begin
   systemd-sleep-485341  [000] ..... 25142.080243: suspend_resume: CPU_ON[7] end
   systemd-sleep-485341  [000] ..... 25142.080245: suspend_resume: CPU_ON[8] begin
   systemd-sleep-485341  [000] ..... 25142.083485: suspend_resume: CPU_ON[8] end
   systemd-sleep-485341  [000] ..... 25142.083487: suspend_resume: CPU_ON[9] begin
   systemd-sleep-485341  [000] ..... 25142.086807: suspend_resume: CPU_ON[9] end
   systemd-sleep-485341  [000] ..... 25142.086809: suspend_resume: CPU_ON[10] begin
   systemd-sleep-485341  [009] ..... 25142.090184: suspend_resume: CPU_ON[10] end
   systemd-sleep-485341  [009] ..... 25142.090187: suspend_resume: CPU_ON[11] begin
   systemd-sleep-485341  [009] ..... 25142.093547: suspend_resume: CPU_ON[11] end
   systemd-sleep-485341  [009] ..... 25142.093550: suspend_resume: CPU_ON[12] begin
   systemd-sleep-485341  [009] ..... 25142.096910: suspend_resume: CPU_ON[12] end
   systemd-sleep-485341  [009] ..... 25142.096912: suspend_resume: CPU_ON[13] begin
   systemd-sleep-485341  [012] ..... 25142.100393: suspend_resume: CPU_ON[13] end
   systemd-sleep-485341  [012] ..... 25142.100397: suspend_resume: CPU_ON[14] begin
   systemd-sleep-485341  [012] ..... 25142.103828: suspend_resume: CPU_ON[14] end
   systemd-sleep-485341  [012] ..... 25142.103830: suspend_resume: CPU_ON[15] begin
   systemd-sleep-485341  [012] ..... 25142.107285: suspend_resume: CPU_ON[15] end
   systemd-sleep-485341  [003] ..... 25142.146341: suspend_resume: dpm_resume_noirq[16] begin
   systemd-sleep-485341  [008] ..... 25142.195920: suspend_resume: dpm_resume_noirq[16] end
   systemd-sleep-485341  [008] ..... 25142.196001: suspend_resume: dpm_resume_early[16] begin
   systemd-sleep-485341  [004] ..... 25142.196448: suspend_resume: dpm_resume_early[16] end
   systemd-sleep-485341  [004] ..... 25142.196449: suspend_resume: dpm_resume[16] begin
           <...>-476307  [011] ..... 25142.313648: smbus_read: i2c-11 a=02c f=0040 c=fd BYTE_DATA
           <...>-476307  [011] ..... 25142.314824: smbus_reply: i2c-11 a=02c f=0000 c=fd BYTE_DATA l=1 [02]
           <...>-476307  [011] ..... 25142.314825: smbus_result: i2c-11 a=02c f=0000 c=fd BYTE_DATA rd res=0
           <...>-476307  [011] ..... 25142.314827: smbus_write: i2c-11 a=02c f=0040 c=84 BLOCK_DATA l=5 [04-15-00-02-00]
           <...>-476307  [011] ..... 25142.315934: smbus_result: i2c-11 a=02c f=0000 c=84 BLOCK_DATA wr res=0
           <...>-476307  [011] ..... 25142.315935: smbus_read: i2c-11 a=02c f=0040 c=4 BLOCK_DATA
           <...>-476307  [011] ..... 25142.316944: smbus_reply: i2c-11 a=02c f=0000 c=4 BLOCK_DATA l=3 [02-00-00]
           <...>-476307  [011] ..... 25142.316944: smbus_result: i2c-11 a=02c f=0000 c=4 BLOCK_DATA rd res=0
           <...>-476307  [011] ..... 25142.316947: smbus_write: i2c-11 a=02c f=0040 c=85 BLOCK_DATA l=5 [04-14-00-01-01]
           <...>-476307  [011] ..... 25142.317946: smbus_result: i2c-11 a=02c f=0000 c=85 BLOCK_DATA wr res=0
           <...>-476307  [011] ..... 25142.317947: smbus_write: i2c-11 a=02c f=0040 c=5 BLOCK_DATA l=2 [01-81]
           <...>-476307  [011] ..... 25142.318945: smbus_result: i2c-11 a=02c f=0000 c=5 BLOCK_DATA wr res=0
           <...>-476307  [011] ..... 25142.318946: smbus_write: i2c-11 a=02c f=0040 c=86 BLOCK_DATA l=5 [04-17-00-01-01]
           <...>-476307  [011] ..... 25142.319943: smbus_result: i2c-11 a=02c f=0000 c=86 BLOCK_DATA wr res=0
           <...>-476307  [011] ..... 25142.319944: smbus_write: i2c-11 a=02c f=0040 c=6 BLOCK_DATA l=2 [01-03]
           <...>-476307  [011] ..... 25142.320942: smbus_result: i2c-11 a=02c f=0000 c=6 BLOCK_DATA wr res=0
           <...>-476307  [011] ..... 25142.320942: smbus_write: i2c-11 a=02c f=0040 c=87 BLOCK_DATA l=5 [04-18-00-01-01]
           <...>-476307  [011] ..... 25142.321944: smbus_result: i2c-11 a=02c f=0000 c=87 BLOCK_DATA wr res=0
           <...>-476307  [011] ..... 25142.321945: smbus_write: i2c-11 a=02c f=0040 c=7 BLOCK_DATA l=2 [01-2d]
           <...>-476307  [011] ..... 25142.322945: smbus_result: i2c-11 a=02c f=0000 c=7 BLOCK_DATA wr res=0
           <...>-476307  [011] ..... 25142.322946: smbus_write: i2c-11 a=02c f=0040 c=80 BLOCK_DATA l=5 [04-19-00-01-01]
           <...>-476307  [011] ..... 25142.323949: smbus_result: i2c-11 a=02c f=0000 c=80 BLOCK_DATA wr res=0
           <...>-476307  [011] ..... 25142.323950: smbus_write: i2c-11 a=02c f=0040 c=0 BLOCK_DATA l=2 [01-00]
           <...>-476307  [011] ..... 25142.324944: smbus_result: i2c-11 a=02c f=0000 c=0 BLOCK_DATA wr res=0
           <...>-476307  [011] ..... 25142.324945: smbus_write: i2c-11 a=02c f=0040 c=81 BLOCK_DATA l=5 [04-15-00-02-01]
           <...>-476307  [011] ..... 25142.325939: smbus_result: i2c-11 a=02c f=0000 c=81 BLOCK_DATA wr res=0
           <...>-476307  [011] ..... 25142.325940: smbus_write: i2c-11 a=02c f=0040 c=1 BLOCK_DATA l=3 [02-08-00]
           <...>-476307  [011] ..... 25142.326935: smbus_result: i2c-11 a=02c f=0000 c=1 BLOCK_DATA wr res=0
           <...>-476307  [011] ..... 25142.326936: smbus_write: i2c-11 a=02c f=0040 c=1 BLOCK_DATA l=3 [02-08-00]
           <...>-476307  [011] ..... 25142.327946: smbus_result: i2c-11 a=02c f=0000 c=1 BLOCK_DATA wr res=0
           <...>-476307  [011] ..... 25142.327947: smbus_write: i2c-11 a=02c f=0040 c=1 BLOCK_DATA l=3 [02-48-00]
           <...>-476307  [014] ..... 25142.328967: smbus_result: i2c-11 a=02c f=0000 c=1 BLOCK_DATA wr res=0
           <...>-476307  [014] ..... 25142.328969: smbus_write: i2c-11 a=02c f=0040 c=1 BLOCK_DATA l=3 [02-c8-00]
           <...>-476307  [014] ..... 25142.329953: smbus_result: i2c-11 a=02c f=0000 c=1 BLOCK_DATA wr res=0
           <...>-476307  [014] ..... 25142.329956: smbus_write: i2c-11 a=02c f=0040 c=5 BLOCK_DATA l=2 [01-80]
           <...>-476307  [014] ..... 25142.330951: smbus_result: i2c-11 a=02c f=0000 c=5 BLOCK_DATA wr res=0
    kworker/15:1-438293  [015] ..... 25143.042271: smbus_write: i2c-11 a=02c f=0040 c=82 BLOCK_DATA l=5 [04-01-02-01-01]
   systemd-sleep-485341  [015] ..... 25143.042404: suspend_resume: dpm_resume[16] end
   systemd-sleep-485341  [015] ..... 25143.042405: suspend_resume: dpm_complete[16] begin
   systemd-sleep-485341  [015] ..... 25143.042889: suspend_resume: dpm_complete[16] end
   systemd-sleep-485341  [015] ..... 25143.042890: suspend_resume: console_resume_all[3] begin
    kworker/15:1-438293  [015] ..... 25143.043304: smbus_result: i2c-11 a=02c f=0000 c=82 BLOCK_DATA wr res=0
    kworker/15:1-438293  [015] ..... 25143.043310: smbus_write: i2c-11 a=02c f=0040 c=2 BLOCK_DATA l=2 [01-e1]
   systemd-sleep-485341  [014] ..... 25143.043313: suspend_resume: console_resume_all[3] end
   systemd-sleep-485341  [014] ..... 25143.043383: suspend_resume: thaw_processes[0] begin
    kworker/15:1-438293  [015] ..... 25143.044047: smbus_result: i2c-11 a=02c f=0000 c=2 BLOCK_DATA wr res=0
 irq/95-rmi4_smb-439863  [015] ..... 25143.049316: smbus_write: i2c-11 a=02c f=0040 c=83 BLOCK_DATA l=5 [04-07-00-02-00]
 irq/95-rmi4_smb-439863  [015] ..... 25143.050471: smbus_result: i2c-11 a=02c f=0000 c=83 BLOCK_DATA wr res=0
 irq/95-rmi4_smb-439863  [015] ..... 25143.050475: smbus_read: i2c-11 a=02c f=0040 c=3 BLOCK_DATA
 irq/95-rmi4_smb-439863  [015] ..... 25143.053005: smbus_reply: i2c-11 a=02c f=0000 c=3 BLOCK_DATA l=3 [02-86-00]
 irq/95-rmi4_smb-439863  [015] ..... 25143.053008: smbus_result: i2c-11 a=02c f=0000 c=3 BLOCK_DATA rd res=0
 irq/95-rmi4_smb-439863  [015] ..... 25143.053015: smbus_write: i2c-11 a=02c f=0040 c=84 BLOCK_DATA l=5 [04-03-02-0e-00]
 irq/95-rmi4_smb-439863  [015] ..... 25143.055593: smbus_result: i2c-11 a=02c f=0000 c=84 BLOCK_DATA wr res=0
 irq/95-rmi4_smb-439863  [015] ..... 25143.055598: smbus_read: i2c-11 a=02c f=0040 c=4 BLOCK_DATA
 irq/95-rmi4_smb-439863  [015] ..... 25143.057874: smbus_reply: i2c-11 a=02c f=0000 c=4 BLOCK_DATA l=15 [0e-01-fa-01-03-01-11-00-00-00-00-00-00-00-00]
 irq/95-rmi4_smb-439863  [015] ..... 25143.057876: smbus_result: i2c-11 a=02c f=0000 c=4 BLOCK_DATA rd res=0
    kworker/15:1-438293  [015] ..... 25143.057898: smbus_write: i2c-11 a=02c f=0040 c=2 BLOCK_DATA l=2 [01-e2]
    kworker/15:1-438293  [015] ..... 25143.058957: smbus_result: i2c-11 a=02c f=0000 c=2 BLOCK_DATA wr res=0
   systemd-sleep-485341  [014] ..... 25143.059445: suspend_resume: thaw_processes[0] end
 irq/95-rmi4_smb-439863  [015] ..... 25143.062195: smbus_read: i2c-11 a=02c f=0040 c=3 BLOCK_DATA
 irq/95-rmi4_smb-439863  [015] ..... 25143.064076: smbus_reply: i2c-11 a=02c f=0000 c=3 BLOCK_DATA l=3 [02-80-00]
 irq/95-rmi4_smb-439863  [015] ..... 25143.064078: smbus_result: i2c-11 a=02c f=0000 c=3 BLOCK_DATA rd res=0
 irq/95-rmi4_smb-439863  [015] ..... 25143.064082: smbus_read: i2c-11 a=02c f=0040 c=4 BLOCK_DATA
 irq/95-rmi4_smb-439863  [015] ..... 25143.067271: smbus_reply: i2c-11 a=02c f=0000 c=4 BLOCK_DATA l=15 [0e-01-fa-00-00-00-00-00-00-00-00-00-00-00-00]
 irq/95-rmi4_smb-439863  [015] ..... 25143.067371: smbus_result: i2c-11 a=02c f=0000 c=4 BLOCK_DATA rd res=0
    kworker/15:1-438293  [015] ..... 25143.067519: smbus_write: i2c-11 a=02c f=0040 c=2 BLOCK_DATA l=2 [01-81]
    kworker/15:1-438293  [015] ..... 25143.069088: smbus_result: i2c-11 a=02c f=0000 c=2 BLOCK_DATA wr res=0
 irq/95-rmi4_smb-439863  [015] ..... 25143.074033: smbus_read: i2c-11 a=02c f=0040 c=3 BLOCK_DATA
 irq/95-rmi4_smb-439863  [015] ..... 25143.075610: smbus_reply: i2c-11 a=02c f=0000 c=3 BLOCK_DATA l=3 [02-80-00]
 irq/95-rmi4_smb-439863  [015] ..... 25143.075611: smbus_result: i2c-11 a=02c f=0000 c=3 BLOCK_DATA rd res=0
 irq/95-rmi4_smb-439863  [015] ..... 25143.075618: smbus_read: i2c-11 a=02c f=0040 c=4 BLOCK_DATA
 irq/95-rmi4_smb-439863  [015] ..... 25143.078343: smbus_reply: i2c-11 a=02c f=0000 c=4 BLOCK_DATA l=15 [0e-01-fa-00-00-00-00-00-00-00-00-00-00-00-00]
 irq/95-rmi4_smb-439863  [015] ..... 25143.078346: smbus_result: i2c-11 a=02c f=0000 c=4 BLOCK_DATA rd res=0
    kworker/15:1-438293  [015] ..... 25143.078367: smbus_write: i2c-11 a=02c f=0040 c=2 BLOCK_DATA l=2 [01-4a]
    kworker/15:1-438293  [015] ..... 25143.079739: smbus_result: i2c-11 a=02c f=0000 c=2 BLOCK_DATA wr res=0
 irq/95-rmi4_smb-439863  [015] ..... 25143.087455: smbus_read: i2c-11 a=02c f=0040 c=3 BLOCK_DATA
 irq/95-rmi4_smb-439863  [015] ..... 25143.090149: smbus_reply: i2c-11 a=02c f=0000 c=3 BLOCK_DATA l=3 [02-80-00]
 irq/95-rmi4_smb-439863  [015] ..... 25143.090150: smbus_result: i2c-11 a=02c f=0000 c=3 BLOCK_DATA rd res=0
 irq/95-rmi4_smb-439863  [015] ..... 25143.090154: smbus_read: i2c-11 a=02c f=0040 c=4 BLOCK_DATA
 irq/95-rmi4_smb-439863  [015] ..... 25143.100034: smbus_reply: i2c-11 a=02c f=0000 c=4 BLOCK_DATA l=15 [0e-01-fa-00-00-00-00-00-00-00-00-00-00-00-00]
 irq/95-rmi4_smb-439863  [015] ..... 25143.100035: smbus_result: i2c-11 a=02c f=0000 c=4 BLOCK_DATA rd res=0
    kworker/15:1-438293  [015] ..... 25143.100052: smbus_write: i2c-11 a=02c f=0040 c=2 BLOCK_DATA l=2 [01-80]
    kworker/15:1-438293  [015] ..... 25143.103034: smbus_result: i2c-11 a=02c f=0000 c=2 BLOCK_DATA wr res=0
 irq/95-rmi4_smb-439863  [015] ..... 25143.111217: smbus_read: i2c-11 a=02c f=0040 c=3 BLOCK_DATA
 irq/95-rmi4_smb-439863  [015] ..... 25143.113254: smbus_reply: i2c-11 a=02c f=0000 c=3 BLOCK_DATA l=3 [02-80-00]
 irq/95-rmi4_smb-439863  [015] ..... 25143.113256: smbus_result: i2c-11 a=02c f=0000 c=3 BLOCK_DATA rd res=0
 irq/95-rmi4_smb-439863  [015] ..... 25143.113260: smbus_read: i2c-11 a=02c f=0040 c=4 BLOCK_DATA
 irq/95-rmi4_smb-439863  [015] ..... 25143.115916: smbus_reply: i2c-11 a=02c f=0000 c=4 BLOCK_DATA l=15 [0e-01-fa-00-00-00-00-00-00-00-00-00-00-00-00]
 irq/95-rmi4_smb-439863  [015] ..... 25143.115919: smbus_result: i2c-11 a=02c f=0000 c=4 BLOCK_DATA rd res=0
    kworker/15:1-438293  [015] ..... 25143.115943: smbus_write: i2c-11 a=02c f=0040 c=2 BLOCK_DATA l=2 [01-e2]
    kworker/15:1-438293  [015] ..... 25143.117161: smbus_result: i2c-11 a=02c f=0000 c=2 BLOCK_DATA wr res=0
 irq/95-rmi4_smb-439863  [015] ..... 25143.123262: smbus_read: i2c-11 a=02c f=0040 c=3 BLOCK_DATA
 irq/95-rmi4_smb-439863  [015] ..... 25143.124503: smbus_reply: i2c-11 a=02c f=0000 c=3 BLOCK_DATA l=3 [02-80-00]
 irq/95-rmi4_smb-439863  [015] ..... 25143.124506: smbus_result: i2c-11 a=02c f=0000 c=3 BLOCK_DATA rd res=0
 irq/95-rmi4_smb-439863  [015] ..... 25143.124513: smbus_read: i2c-11 a=02c f=0040 c=4 BLOCK_DATA
 irq/95-rmi4_smb-439863  [015] ..... 25143.126803: smbus_reply: i2c-11 a=02c f=0000 c=4 BLOCK_DATA l=15 [0e-01-fa-00-00-00-00-00-00-00-00-00-00-00-00]
 irq/95-rmi4_smb-439863  [015] ..... 25143.126805: smbus_result: i2c-11 a=02c f=0000 c=4 BLOCK_DATA rd res=0
    kworker/15:1-438293  [015] ..... 25143.126825: smbus_write: i2c-11 a=02c f=0040 c=2 BLOCK_DATA l=2 [01-2c]
    kworker/15:1-438293  [015] ..... 25143.128581: smbus_result: i2c-11 a=02c f=0000 c=2 BLOCK_DATA wr res=0
 irq/95-rmi4_smb-439863  [015] ..... 25143.136109: smbus_read: i2c-11 a=02c f=0040 c=3 BLOCK_DATA
 irq/95-rmi4_smb-439863  [015] ..... 25143.137883: smbus_reply: i2c-11 a=02c f=0000 c=3 BLOCK_DATA l=3 [02-80-00]
 irq/95-rmi4_smb-439863  [015] ..... 25143.137885: smbus_result: i2c-11 a=02c f=0000 c=3 BLOCK_DATA rd res=0
 irq/95-rmi4_smb-439863  [015] ..... 25143.137891: smbus_read: i2c-11 a=02c f=0040 c=4 BLOCK_DATA
 irq/95-rmi4_smb-439863  [015] ..... 25143.140008: smbus_reply: i2c-11 a=02c f=0000 c=4 BLOCK_DATA l=15 [0e-01-fa-01-20-00-00-00-00-00-00-00-00-00-00]
 irq/95-rmi4_smb-439863  [015] ..... 25143.140011: smbus_result: i2c-11 a=02c f=0000 c=4 BLOCK_DATA rd res=0
    kworker/15:1-438293  [015] ..... 25143.140039: smbus_write: i2c-11 a=02c f=0040 c=2 BLOCK_DATA l=2 [01-f3]
    kworker/15:1-438293  [015] ..... 25143.141242: smbus_result: i2c-11 a=02c f=0000 c=2 BLOCK_DATA wr res=0
 irq/95-rmi4_smb-439863  [015] ..... 25143.147969: smbus_read: i2c-11 a=02c f=0040 c=3 BLOCK_DATA
 irq/95-rmi4_smb-439863  [015] ..... 25143.148965: smbus_reply: i2c-11 a=02c f=0000 c=3 BLOCK_DATA l=3 [02-80-00]
 irq/95-rmi4_smb-439863  [015] ..... 25143.148967: smbus_result: i2c-11 a=02c f=0000 c=3 BLOCK_DATA rd res=0
 irq/95-rmi4_smb-439863  [015] ..... 25143.148972: smbus_read: i2c-11 a=02c f=0040 c=4 BLOCK_DATA
 irq/95-rmi4_smb-439863  [015] ..... 25143.151513: smbus_reply: i2c-11 a=02c f=0000 c=4 BLOCK_DATA l=15 [0e-01-fa-00-00-00-00-00-00-00-00-00-00-00-00]
 irq/95-rmi4_smb-439863  [015] ..... 25143.151515: smbus_result: i2c-11 a=02c f=0000 c=4 BLOCK_DATA rd res=0
    kworker/15:1-438293  [015] ..... 25143.151533: smbus_write: i2c-11 a=02c f=0040 c=2 BLOCK_DATA l=2 [01-64]
    kworker/15:1-438293  [015] ..... 25143.152388: smbus_result: i2c-11 a=02c f=0000 c=2 BLOCK_DATA wr res=0
 irq/95-rmi4_smb-439863  [015] ..... 25143.160290: smbus_read: i2c-11 a=02c f=0040 c=3 BLOCK_DATA
 irq/95-rmi4_smb-439863  [015] ..... 25143.161474: smbus_reply: i2c-11 a=02c f=0000 c=3 BLOCK_DATA l=3 [02-80-00]
 irq/95-rmi4_smb-439863  [015] ..... 25143.161476: smbus_result: i2c-11 a=02c f=0000 c=3 BLOCK_DATA rd res=0
 irq/95-rmi4_smb-439863  [015] ..... 25143.161480: smbus_read: i2c-11 a=02c f=0040 c=4 BLOCK_DATA
 irq/95-rmi4_smb-439863  [015] ..... 25143.164024: smbus_reply: i2c-11 a=02c f=0000 c=4 BLOCK_DATA l=15 [0e-01-fa-00-00-00-00-00-00-00-00-00-00-00-00]
 irq/95-rmi4_smb-439863  [015] ..... 25143.164028: smbus_result: i2c-11 a=02c f=0000 c=4 BLOCK_DATA rd res=0
    kworker/15:1-438293  [015] ..... 25143.164055: smbus_write: i2c-11 a=02c f=0040 c=2 BLOCK_DATA l=2 [01-e8]
    kworker/15:1-438293  [015] ..... 25143.165284: smbus_result: i2c-11 a=02c f=0000 c=2 BLOCK_DATA wr res=0
 irq/95-rmi4_smb-439863  [015] ..... 25143.172647: smbus_read: i2c-11 a=02c f=0040 c=3 BLOCK_DATA
 irq/95-rmi4_smb-439863  [015] ..... 25143.173963: smbus_reply: i2c-11 a=02c f=0000 c=3 BLOCK_DATA l=3 [02-80-00]
 irq/95-rmi4_smb-439863  [015] ..... 25143.173964: smbus_result: i2c-11 a=02c f=0000 c=3 BLOCK_DATA rd res=0
 irq/95-rmi4_smb-439863  [015] ..... 25143.173968: smbus_read: i2c-11 a=02c f=0040 c=4 BLOCK_DATA
 irq/95-rmi4_smb-439863  [015] ..... 25143.176172: smbus_reply: i2c-11 a=02c f=0000 c=4 BLOCK_DATA l=15 [0e-01-fa-00-00-00-00-00-00-00-00-00-00-00-00]
 irq/95-rmi4_smb-439863  [015] ..... 25143.176174: smbus_result: i2c-11 a=02c f=0000 c=4 BLOCK_DATA rd res=0
    kworker/15:1-438293  [015] ..... 25143.176204: smbus_write: i2c-11 a=02c f=0040 c=2 BLOCK_DATA l=2 [01-03]
    kworker/15:1-438293  [015] ..... 25143.178058: smbus_result: i2c-11 a=02c f=0000 c=2 BLOCK_DATA wr res=0
 irq/95-rmi4_smb-439863  [015] ..... 25143.185010: smbus_read: i2c-11 a=02c f=0040 c=3 BLOCK_DATA
 irq/95-rmi4_smb-439863  [015] ..... 25143.186216: smbus_reply: i2c-11 a=02c f=0000 c=3 BLOCK_DATA l=3 [02-80-00]
 irq/95-rmi4_smb-439863  [015] ..... 25143.186218: smbus_result: i2c-11 a=02c f=0000 c=3 BLOCK_DATA rd res=0
 irq/95-rmi4_smb-439863  [015] ..... 25143.186222: smbus_read: i2c-11 a=02c f=0040 c=4 BLOCK_DATA
 irq/95-rmi4_smb-439863  [015] ..... 25143.188482: smbus_reply: i2c-11 a=02c f=0000 c=4 BLOCK_DATA l=15 [0e-01-fa-00-00-00-00-00-00-00-00-00-00-00-00]
 irq/95-rmi4_smb-439863  [015] ..... 25143.188483: smbus_result: i2c-11 a=02c f=0000 c=4 BLOCK_DATA rd res=0
    kworker/15:1-438293  [015] ..... 25143.188499: smbus_write: i2c-11 a=02c f=0040 c=2 BLOCK_DATA l=2 [01-e6]
    kworker/15:1-438293  [015] ..... 25143.189474: smbus_result: i2c-11 a=02c f=0000 c=2 BLOCK_DATA wr res=0
 irq/95-rmi4_smb-439863  [015] ..... 25143.197317: smbus_read: i2c-11 a=02c f=0040 c=3 BLOCK_DATA
 irq/95-rmi4_smb-439863  [015] ..... 25143.198477: smbus_reply: i2c-11 a=02c f=0000 c=3 BLOCK_DATA l=3 [02-80-00]
 irq/95-rmi4_smb-439863  [015] ..... 25143.198479: smbus_result: i2c-11 a=02c f=0000 c=3 BLOCK_DATA rd res=0
 irq/95-rmi4_smb-439863  [015] ..... 25143.198482: smbus_read: i2c-11 a=02c f=0040 c=4 BLOCK_DATA
 irq/95-rmi4_smb-439863  [015] ..... 25143.200995: smbus_reply: i2c-11 a=02c f=0000 c=4 BLOCK_DATA l=15 [0e-01-fa-00-00-00-00-00-00-00-00-00-00-00-00]
 irq/95-rmi4_smb-439863  [015] ..... 25143.200996: smbus_result: i2c-11 a=02c f=0000 c=4 BLOCK_DATA rd res=0
    kworker/15:1-438293  [015] ..... 25143.201011: smbus_write: i2c-11 a=02c f=0040 c=2 BLOCK_DATA l=2 [01-f4]
    kworker/15:1-438293  [015] ..... 25143.203547: smbus_result: i2c-11 a=02c f=0000 c=2 BLOCK_DATA wr res=0
 irq/95-rmi4_smb-439863  [015] ..... 25143.209690: smbus_read: i2c-11 a=02c f=0040 c=3 BLOCK_DATA
 irq/95-rmi4_smb-439863  [015] ..... 25143.210910: smbus_reply: i2c-11 a=02c f=0000 c=3 BLOCK_DATA l=3 [02-80-00]
 irq/95-rmi4_smb-439863  [015] ..... 25143.210911: smbus_result: i2c-11 a=02c f=0000 c=3 BLOCK_DATA rd res=0
 irq/95-rmi4_smb-439863  [015] ..... 25143.210915: smbus_read: i2c-11 a=02c f=0040 c=4 BLOCK_DATA
 irq/95-rmi4_smb-439863  [015] ..... 25143.213006: smbus_reply: i2c-11 a=02c f=0000 c=4 BLOCK_DATA l=15 [0e-01-fa-00-00-00-00-00-00-00-00-00-00-00-00]
 irq/95-rmi4_smb-439863  [015] ..... 25143.213007: smbus_result: i2c-11 a=02c f=0000 c=4 BLOCK_DATA rd res=0
 irq/95-rmi4_smb-439863  [015] ..... 25148.580354: smbus_read: i2c-11 a=02c f=0040 c=3 BLOCK_DATA
 irq/95-rmi4_smb-439863  [015] ..... 25148.581485: smbus_reply: i2c-11 a=02c f=0000 c=3 BLOCK_DATA l=3 [02-18-00]
 irq/95-rmi4_smb-439863  [015] ..... 25148.581486: smbus_result: i2c-11 a=02c f=0000 c=3 BLOCK_DATA rd res=0
 irq/95-rmi4_smb-439863  [015] ..... 25148.581490: smbus_write: i2c-11 a=02c f=0040 c=85 BLOCK_DATA l=5 [04-0c-00-20-00]
 irq/95-rmi4_smb-439863  [015] ..... 25148.582516: smbus_result: i2c-11 a=02c f=0000 c=85 BLOCK_DATA wr res=0
 irq/95-rmi4_smb-439863  [015] ..... 25148.582518: smbus_read: i2c-11 a=02c f=0040 c=5 BLOCK_DATA
 irq/95-rmi4_smb-439863  [015] ..... 25148.586578: smbus_reply: i2c-11 a=02c f=0000 c=5 BLOCK_DATA l=33 [20-01-ac-02-0d-01-3a-04-04-00-00-00-00-00-00-00-00-00-00-00-00-00-00-00-00-00-00-00-00-00-00-00-00]
 irq/95-rmi4_smb-439863  [015] ..... 25148.586580: smbus_result: i2c-11 a=02c f=0000 c=5 BLOCK_DATA rd res=0
 irq/95-rmi4_smb-439863  [015] ..... 25148.586586: smbus_write: i2c-11 a=02c f=0040 c=86 BLOCK_DATA l=5 [04-2c-00-20-00]
 irq/95-rmi4_smb-439863  [015] ..... 25148.587867: smbus_result: i2c-11 a=02c f=0000 c=86 BLOCK_DATA wr res=0
 irq/95-rmi4_smb-439863  [015] ..... 25148.587869: smbus_read: i2c-11 a=02c f=0040 c=6 BLOCK_DATA
 irq/95-rmi4_smb-439863  [015] ..... 25148.592097: smbus_reply: i2c-11 a=02c f=0000 c=6 BLOCK_DATA l=33 [20-04-10-00-80-00-7a-15-06-00-81-02-fe-01-00-00-01-e0-01-04-00-00-00-00-00-00-c4-54-4d-33-34-37-31]
